#  HZ   S   RI   R     50.0 
! Rohde & Schwarz ZVL 
! 
! 
! 
 1.720000000000000E9     2.516136467456818E-1   2.420428974410784E-1   2.830769121646881E-1  -7.254777832259486E-1   3.049845695495606E-1  -7.550435193125626E-1  -9.487279504537582E-2   1.535454409184124E-1  
 1.720445000000000E9     2.566647827625275E-1   2.423411873346030E-1   2.733844816684723E-1  -7.293528859158744E-1   2.797237634658814E-1  -7.616003029005729E-1  -9.535838663578033E-2   1.562076447842082E-1  
 1.720890000000000E9     2.570587694644928E-1   2.449198137108858E-1   2.777234613895416E-1  -7.304065295737688E-1   2.876964509487152E-1  -7.614071315416292E-1  -9.559466689825058E-2   1.453121775936315E-1  
 1.721335000000000E9     2.572785019874573E-1   2.410469003383185E-1   2.623484730720520E-1  -7.367577375980496E-1   2.854491472244263E-1  -7.613625638225623E-1  -9.308011829853058E-2   1.372154959871265E-1  
 1.721780000000000E9     2.523431479930878E-1   2.412659219653309E-1   2.699129581451416E-1  -7.349138995900926E-1   2.632956206798554E-1  -7.699431483948804E-1  -9.013158082962036E-2   1.500709034730593E-1  
 1.722225000000000E9     2.568987011909485E-1   2.374807015993109E-1   2.307352721691132E-1  -7.496218861214233E-1   2.490563541650772E-1  -7.775271407786463E-1  -8.050843328237534E-2   1.518309544144013E-1  
 1.722670000000000E9     2.695464491844177E-1   2.248988427894131E-1   2.229449152946472E-1  -7.532742533885201E-1   2.613516151905060E-1  -7.725277254412655E-1  -7.804853469133377E-2   1.414566779083297E-1  
 1.723115000000000E9     2.630321979522705E-1   2.296185751581196E-1   1.950861364603043E-1  -7.615881326600773E-1   2.311156839132309E-1  -7.800211046218537E-1  -7.518515735864639E-2   1.449062049609023E-1  
 1.723560000000000E9     2.805640399456024E-1   2.224298415190500E-1   1.735841035842896E-1  -7.687161557423328E-1   1.811742186546326E-1  -7.951418436203095E-1  -6.723265349864960E-2   1.614360107710899E-1  
 1.724005000000000E9     2.682941555976868E-1   2.221403299546253E-1   1.777454316616058E-1  -7.682981598603311E-1   1.838278472423554E-1  -7.940194386801627E-1  -7.152786105871201E-2   1.565802128164607E-1  
 1.724450000000000E9     2.663010358810425E-1   2.207697564602755E-1   1.774135529994965E-1  -7.679571449670904E-1   1.541890054941177E-1  -7.999077321450969E-1  -6.709679216146469E-2   1.551383321579038E-1  
 1.724895000000000E9     2.770488262176514E-1   2.176789244036738E-1   1.566124856472015E-1  -7.746106846932470E-1   1.825256049633026E-1  -7.941976512523259E-1  -5.773523822426796E-2   1.567285795185302E-1  
 1.725340000000000E9     2.736542224884033E-1   2.136217109582805E-1   1.416516900062561E-1  -7.776811690056841E-1   1.704232692718506E-1  -7.975011379989305E-1  -6.006847321987152E-2   1.455206594514885E-1  
 1.725785000000000E9     2.708495259284973E-1   2.080155455341679E-1   1.441277265548706E-1  -7.788094660637869E-1   1.471769511699677E-1  -8.026209897808121E-1  -5.377910658717156E-2   1.418462172925183E-1  
 1.726230000000000E9     2.700709700584412E-1   2.125838336950167E-1   1.356506794691086E-1  -7.791244536378719E-1   1.035953462123871E-1  -8.083594394779008E-1  -4.850256815552712E-2   1.680463456508202E-1  
 1.726675000000000E9     2.682016491889954E-1   2.075029359511579E-1   1.394986957311630E-1  -7.798250403890373E-1   1.077829077839851E-1  -8.081562579731139E-1  -5.410945415496826E-2   1.512890290661722E-1  
 1.727120000000000E9     2.667675912380219E-1   2.069841412895994E-1   1.202109679579735E-1  -7.829544410499678E-1   8.354971557855606E-2  -8.127127412882493E-1  -5.852109566330910E-2   1.447062798154093E-1  
 1.727565000000000E9     2.698760926723480E-1   2.036103810167144E-1   9.621998667716980E-2  -7.868288806709581E-1   6.945307552814484E-2  -8.127085721359495E-1  -4.575301706790924E-2   1.642823085391377E-1  
 1.728010000000000E9     2.795055806636810E-1   1.971947752070322E-1   6.353246420621872E-2  -7.909511492477239E-1   6.931819766759872E-2  -8.119367815297058E-1  -4.666499048471451E-2   1.596038216952423E-1  
 1.728455000000000E9     2.688526213169098E-1   2.032232833550173E-1   8.749017119407654E-2  -7.888720880642923E-1   4.841561242938042E-2  -8.125646240716049E-1  -3.970959782600403E-2   1.656307061594882E-1  
 1.728900000000000E9     2.710206806659699E-1   1.976257254930142E-1   5.830673500895500E-2  -7.922066418599443E-1   2.898904122412205E-2  -8.138922717381577E-1  -3.726169466972351E-2   1.661727932203483E-1  
 1.729345000000000E9     2.732124924659729E-1   1.923410349437456E-1   3.934555873274803E-2  -7.933368865713151E-1   5.996491760015488E-3  -8.158910346355559E-1  -4.017034918069840E-2   1.548071352958242E-1  
 1.729790000000000E9     2.737826406955719E-1   1.930406750150361E-1   3.876817226409912E-2  -7.944219770640824E-1   1.157667301595211E-2  -8.130016235807849E-1  -3.839995712041855E-2   1.514189089079120E-1  
 1.730235000000000E9     2.753945291042328E-1   1.823071468846272E-1   5.057106167078018E-2  -7.932962035394993E-1  -1.785700023174286E-2  -8.129058358561268E-1  -3.653459995985031E-2   1.618550762187005E-1  
 1.730680000000000E9     2.727622985839844E-1   1.904690173299181E-1   2.207199856638908E-2  -7.930110335583980E-1  -4.098775796592236E-3  -8.117999194753520E-1  -3.949702531099320E-2   1.566522311808761E-1  
 1.731125000000000E9     2.759382128715515E-1   1.830985111988620E-1   2.336473949253559E-2  -7.957550509958806E-1  -2.996079437434673E-2  -8.103434503929612E-1  -3.573955595493317E-2   1.416885473961826E-1  
 1.731570000000000E9     2.777419388294220E-1   1.761274460277079E-1  -2.054965123534203E-2  -7.951023446648458E-1  -5.529269203543663E-2  -8.078791354805479E-1  -3.581764921545982E-2   1.572248003592108E-1  
 1.732015000000000E9     2.701775729656220E-1   1.882221061939338E-1  -3.339806571602821E-2  -7.938493204598860E-1  -5.811272934079170E-2  -8.080287167813078E-1  -3.189586102962494E-2   1.470149959268603E-1  
 1.732460000000000E9     2.715740501880646E-1   1.731149291854019E-1  -3.863344714045525E-2  -7.934567739013133E-1  -7.656472921371460E-2  -8.044958922169139E-1  -3.261800110340118E-2   1.510508111876875E-1  
 1.732905000000000E9     2.767073214054108E-1   1.713952592816205E-1  -4.755895584821701E-2  -7.937963407992351E-1  -9.074898064136505E-2  -8.022578451712991E-1  -2.533577010035515E-2   1.538042434435942E-1  
 1.733350000000000E9     2.627449631690979E-1   1.750697197878174E-1  -5.058897286653519E-2  -7.942402911487295E-1  -8.233201503753662E-2  -8.022586367730534E-1  -1.788433827459812E-2   1.463035561633645E-1  
 1.733795000000000E9     2.747105956077576E-1   1.660628114083292E-1  -6.586503237485886E-2  -7.930318409557707E-1  -1.267151534557343E-1  -7.949030486432401E-1  -1.866653375327587E-2   1.489749457270179E-1  
 1.734240000000000E9     2.682370841503143E-1   1.695469423858856E-1  -7.909588515758514E-2  -7.917098736634866E-1  -1.165870353579521E-1  -7.945788040569272E-1  -1.801031641662121E-2   1.402744784029217E-1  
 1.734685000000000E9     2.730462849140167E-1   1.680975202563609E-1  -1.008319333195686E-1  -7.882025973911763E-1  -1.560001671314240E-1  -7.889640286416130E-1  -1.480326801538467E-2   1.616005583400018E-1  
 1.735130000000000E9     2.728925347328186E-1   1.596596053154746E-1  -1.182157248258591E-1  -7.865655027334132E-1  -1.547703891992569E-1  -7.855995062180442E-1  -1.528445165604353E-2   1.532285333397845E-1  
 1.735575000000000E9     2.688158452510834E-1   1.630616778152996E-1  -1.037864312529564E-1  -7.891995109684356E-1  -1.645669639110565E-1  -7.845798297054563E-1  -1.379588432610035E-2   1.467199531564195E-1  
 1.736020000000000E9     2.702499926090241E-1   1.576210285712084E-1  -1.360924541950226E-1  -7.835438459589281E-1  -1.718779355287552E-1  -7.812800733659864E-1  -1.299822051078081E-2   1.591784725941872E-1  
 1.736465000000000E9     2.720345258712769E-1   1.506029133913208E-1  -1.563865542411804E-1  -7.788024797309078E-1  -2.128276377916336E-1  -7.699380118558931E-1  -4.478252492845058E-3   1.688944892364303E-1  
 1.736910000000000E9     2.681876420974731E-1   1.614751915052573E-1  -1.450203508138657E-1  -7.807791588581986E-1  -2.063259333372116E-1  -7.699136765071908E-1  -8.677701465785503E-3   1.511062862310789E-1  
 1.737355000000000E9     2.658424079418182E-1   1.550560957299443E-1  -1.484331339597702E-1  -7.798183942009204E-1  -2.124773859977722E-1  -7.671718258759922E-1  -2.798874920699745E-4   1.556462512842162E-1  
 1.737800000000000E9     2.697041630744934E-1   1.536813844590363E-1  -1.893032044172287E-1  -7.709466060938469E-1  -2.308278530836105E-1  -7.604660373566933E-1  -2.878008643165231E-3   1.626464523531259E-1  
 1.738245000000000E9     2.658976018428803E-1   1.468606675692317E-1  -2.103812843561173E-1  -7.653715977444496E-1  -2.415985614061356E-1  -7.562282445352246E-1   3.020215081050992E-3   1.526985433118910E-1  
 1.738690000000000E9     2.640927135944367E-1   1.533023270430598E-1  -1.862580180168152E-1  -7.705828517703789E-1  -2.518233656883240E-1  -7.507648965127304E-1   2.032556803897023E-3   1.528772552697534E-1  
 1.739135000000000E9     2.740338742733002E-1   1.372395914248249E-1  -2.312774807214737E-1  -7.579508797144271E-1  -2.592740654945374E-1  -7.468280524522133E-1   5.087585654109716E-3   1.610647505892347E-1  
 1.739580000000000E9     2.639283239841461E-1   1.418773467791510E-1  -2.263018935918808E-1  -7.585395419042835E-1  -2.797052562236786E-1  -7.374695211727954E-1   4.406318999826908E-3   1.592629757811348E-1  
 1.740025000000000E9     2.697198987007141E-1   1.391309392835330E-1  -2.420188486576080E-1  -7.540288080176495E-1  -2.990477681159973E-1  -7.293439237613931E-1   2.079506171867251E-3   1.548220838464015E-1  
 1.740470000000000E9     2.596460580825806E-1   1.409102352390485E-1  -2.421309202909470E-1  -7.533136805932483E-1  -2.913753688335419E-1  -7.303235179246929E-1   3.404821502044797E-3   1.511576657946166E-1  
 1.740915000000000E9     2.715931236743927E-1   1.307992377003458E-1  -2.730517983436585E-1  -7.429784425389211E-1  -3.011874854564667E-1  -7.248150548684249E-1   3.612320171669126E-3   1.462857218587100E-1  
 1.741360000000000E9     2.685531079769135E-1   1.225582713868462E-1  -2.930808365345001E-1  -7.333910838678146E-1  -3.134887516498566E-1  -7.168653252870112E-1   1.157740410417318E-2   1.554183204174263E-1  
 1.741805000000000E9     2.726324200630188E-1   1.233838891550413E-1  -2.847496569156647E-1  -7.365233489755746E-1  -3.178710043430328E-1  -7.137498206777727E-1   8.261724375188351E-3   1.535062395766166E-1  
 1.742250000000000E9     2.591373920440674E-1   1.378384952780395E-1  -2.849982380867004E-1  -7.356733752340262E-1  -3.222696185112000E-1  -7.107937392132369E-1   1.010900549590588E-2   1.415622023997047E-1  
 1.742695000000000E9     2.670382857322693E-1   1.263495977721255E-1  -3.336925208568573E-1  -7.148589927615561E-1  -3.499043583869934E-1  -6.941036472263562E-1   1.309994235634804E-2   1.569305963172636E-1  
 1.743140000000000E9     2.580295205116272E-1   1.239826030232182E-1  -3.118529617786408E-1  -7.243424769921374E-1  -3.332793116569519E-1  -7.018678297815164E-1   1.421223115175962E-2   1.483230712497349E-1  
 1.743585000000000E9     2.552366554737091E-1   1.242745126134880E-1  -3.059787452220917E-1  -7.251538063506287E-1  -3.684576451778412E-1  -6.826501571212079E-1   1.696922257542610E-2   1.565552973925612E-1  
 1.744030000000000E9     2.555296421051025E-1   1.220179047737096E-1  -3.155887722969055E-1  -7.197781813137020E-1  -3.775990307331085E-1  -6.761584429314692E-1   1.365684065967798E-2   1.536665639883006E-1  
 1.744475000000000E9     2.598358988761902E-1   1.193606966757158E-1  -3.746027648448944E-1  -6.913781695539180E-1  -3.909540474414825E-1  -6.650849676062473E-1   2.072176337242127E-2   1.505460997707602E-1  
 1.744920000000000E9     2.632510960102081E-1   1.150430929979541E-1  -3.667278587818146E-1  -6.926915497305624E-1  -3.991498351097107E-1  -6.600192962286821E-1   1.969469152390957E-2   1.511424446483393E-1  
 1.745365000000000E9     2.537870705127716E-1   1.143483681966245E-1  -3.751405477523804E-1  -6.890452852304821E-1  -4.219756722450256E-1  -6.436519374496240E-1   2.081890217959881E-2   1.537054480244422E-1  
 1.745810000000000E9     2.629195451736450E-1   1.090457469720227E-1  -3.771705031394959E-1  -6.862079905366814E-1  -4.213252961635590E-1  -6.417466162668086E-1   2.059662900865078E-2   1.433920720451765E-1  
 1.746255000000000E9     2.622246742248535E-1   1.090868375828992E-1  -3.934129476547241E-1  -6.754585112545447E-1  -4.242845475673676E-1  -6.381672065960912E-1   2.319763973355293E-2   1.504755866724951E-1  
 1.746700000000000E9     2.510958015918732E-1   1.102386145995093E-1  -4.091098010540009E-1  -6.656440133905637E-1  -4.300372898578644E-1  -6.310023409057738E-1   2.198759280145168E-2   1.574030072268219E-1  
 1.747145000000000E9     2.556293904781342E-1   1.005919786359957E-1  -4.142664968967438E-1  -6.625587185940384E-1  -4.457778930664063E-1  -6.188283518635712E-1   2.758115343749523E-2   1.547186929549703E-1  
 1.747590000000000E9     2.529062628746033E-1   9.989951350921054E-2  -4.259844124317169E-1  -6.540644638200381E-1  -4.479332268238068E-1  -6.153409018699780E-1   3.737059608101845E-2   1.451184415334686E-1  
 1.748035000000000E9     2.542333900928497E-1   1.035086289315026E-1  -4.245469272136688E-1  -6.521339533222811E-1  -4.466242492198944E-1  -6.147329780679682E-1   3.461198136210442E-2   1.448391775241779E-1  
 1.748480000000000E9     2.468813508749008E-1   1.007103972220904E-1  -4.398803710937500E-1  -6.412964207616064E-1  -4.667420685291290E-1  -5.960329703762013E-1   3.797662630677223E-2   1.495730777034983E-1  
 1.748925000000000E9     2.497996687889099E-1   9.794156094421008E-2  -4.592243731021881E-1  -6.267422587062411E-1  -4.684186875820160E-1  -5.936047821651495E-1   3.342375904321671E-2   1.494932590457869E-1  
 1.749370000000000E9     2.403390556573868E-1   1.033873790306085E-1  -4.585632383823395E-1  -6.268246449890080E-1  -4.737021327018738E-1  -5.884830303704680E-1   3.719950839877129E-2   1.567421867691848E-1  
 1.749815000000000E9     2.468941062688828E-1   9.445028018956087E-2  -4.734722375869751E-1  -6.141113000964251E-1  -4.900975227355957E-1  -5.712054891082350E-1   4.440359398722649E-2   1.524188825964800E-1  
 1.750260000000000E9     2.436061948537827E-1   9.142218500065782E-2  -4.951241314411163E-1  -5.958605815472814E-1  -4.950375556945801E-1  -5.645057079459075E-1   4.760896787047386E-2   1.470608603134620E-1  
 1.750705000000000E9     2.478135377168655E-1   9.273866400334234E-2  -4.860649108886719E-1  -5.999856797526524E-1  -4.857523739337921E-1  -5.699658345392389E-1   4.197641089558601E-2   1.450601997767347E-1  
 1.751150000000000E9     2.379054278135300E-1   8.943848636825505E-2  -4.962071180343628E-1  -5.913969580221583E-1  -4.923761487007141E-1  -5.610226370162497E-1   3.889748081564903E-2   1.492431242151320E-1  
 1.751595000000000E9     2.443909496068955E-1   9.031873166233319E-2  -5.038543939590454E-1  -5.841700089870920E-1  -5.015920996665955E-1  -5.502958263710464E-1   4.432360455393791E-2   1.395343575395042E-1  
 1.752040000000000E9     2.408228814601898E-1   8.451893725230994E-2  -4.980483949184418E-1  -5.848806725144686E-1  -5.297399163246155E-1  -5.214880743312107E-1   5.032945424318314E-2   1.418215635280369E-1  
 1.752485000000000E9     2.391926795244217E-1   8.178075667480156E-2  -5.304496288299561E-1  -5.560666791757664E-1  -5.239915847778320E-1  -5.239889181496747E-1   5.220455303788185E-2   1.442605723841092E-1  
 1.752930000000000E9     2.309895455837250E-1   8.146601387151307E-2  -5.303972959518433E-1  -5.548141754780779E-1  -5.255680680274963E-1  -5.214455345936994E-1   5.589247867465019E-2   1.388338396546817E-1  
 1.753375000000000E9     2.390834689140320E-1   8.199488486889794E-2  -5.428135395050049E-1  -5.405141708302600E-1  -5.387276411056519E-1  -5.033955427327086E-1   5.901848897337914E-2   1.452662839405449E-1  
 1.753820000000000E9     2.341222167015076E-1   8.171281214806032E-2  -5.475567579269409E-1  -5.344254127772159E-1  -5.331669449806213E-1  -5.076471622254645E-1   5.825971439480782E-2   1.331318838424377E-1  
 1.754265000000000E9     2.340218126773834E-1   7.963883357487875E-2  -5.645480155944824E-1  -5.142439408395655E-1  -5.512639880180359E-1  -4.862946667299387E-1   5.352688953280449E-2   1.425321016470494E-1  
 1.754710000000000E9     2.363136708736420E-1   7.270026320692301E-2  -5.762693285942078E-1  -4.975491412348040E-1  -5.548924803733826E-1  -4.775407936103744E-1   6.018371507525444E-2   1.444446852404331E-1  
 1.755155000000000E9     2.315549105405808E-1   7.626780600444275E-2  -5.757195949554443E-1  -4.958514667597506E-1  -5.657972097396851E-1  -4.642130073651231E-1   7.270886003971100E-2   1.396180453838170E-1  
 1.755600000000000E9     2.161263376474381E-1   7.588239945129571E-2  -5.819551944732666E-1  -4.880162429622899E-1  -5.695105195045471E-1  -4.551680783092714E-1   6.539267301559448E-2   1.452566053999809E-1  
 1.756045000000000E9     2.208469361066818E-1   7.624527969263874E-2  -5.842356681823731E-1  -4.825849132267870E-1  -5.620185136795044E-1  -4.627581157963533E-1   6.288605928421021E-2   1.377160384480407E-1  
 1.756490000000000E9     2.175571918487549E-1   7.227987775746882E-2  -5.848063826560974E-1  -4.816596174297558E-1  -5.739920139312744E-1  -4.464043197071133E-1   6.277374178171158E-2   1.402442264877497E-1  
 1.756935000000000E9     2.138588428497315E-1   7.108287061141012E-2  -6.060768961906433E-1  -4.521430041132419E-1  -5.714751482009888E-1  -4.449188529190414E-1   6.620679795742035E-2   1.438166923365062E-1  
 1.757380000000000E9     2.139934748411179E-1   7.552259092035928E-2  -6.057546734809876E-1  -4.511096729776563E-1  -5.878694653511047E-1  -4.186751243912877E-1   7.596786320209503E-2   1.374771327643897E-1  
 1.757825000000000E9     2.118522375822067E-1   7.187029450823540E-2  -6.105548739433289E-1  -4.419983614112286E-1  -5.961809158325195E-1  -4.071698190958270E-1   7.390184700489044E-2   1.439442361036912E-1  
 1.758270000000000E9     2.076006531715393E-1   7.015179741143124E-2  -6.023199558258057E-1  -4.488711046673906E-1  -5.912781953811646E-1  -4.105909891028367E-1   7.700619101524353E-2   1.415843056719367E-1  
 1.758715000000000E9     2.037338614463806E-1   6.421576849369241E-2  -6.195641756057739E-1  -4.244573594555452E-1  -5.982395410537720E-1  -3.980900415177113E-1   8.220551162958145E-2   1.525652537707928E-1  
 1.759160000000000E9     2.045334130525589E-1   6.639953154845553E-2  -6.235689520835877E-1  -4.141952234411568E-1  -6.069427728652954E-1  -3.829415690845783E-1   8.189011365175247E-2   1.441180836010609E-1  
 1.759605000000000E9     2.070528864860535E-1   6.253320052099430E-2  -6.316554546356201E-1  -4.006620637715719E-1  -6.075662374496460E-1  -3.771489004297065E-1   7.804910838603973E-2   1.435761802774850E-1  
 1.760050000000000E9     1.990425884723663E-1   6.010958112242435E-2  -6.326450109481812E-1  -3.954014552718165E-1  -6.078316569328308E-1  -3.746347096018048E-1   7.087472081184387E-2   1.451604496836816E-1  
 1.760495000000000E9     2.001351863145828E-1   6.038792250679946E-2  -6.281706690788269E-1  -4.017462413254578E-1  -6.175902485847473E-1  -3.562886698900838E-1   8.668296784162521E-2   1.558726791151923E-1  
 1.760940000000000E9     1.970070451498032E-1   6.133691452914829E-2  -6.389455199241638E-1  -3.798355155442921E-1  -6.199991106987000E-1  -3.459827117895651E-1   8.321475982666016E-2   1.478352234270495E-1  
 1.761385000000000E9     1.855537891387940E-1   6.288790332424830E-2  -6.480622291564941E-1  -3.637245423432517E-1  -6.275518536567688E-1  -3.330887424754551E-1   8.889246731996536E-2   1.541132227867071E-1  
