# HZ S RI R 50
1620000000 0.03147883340716362 -0.11532766371965408 0.4666363596916199 -0.5052592158317566 0 0 0 0
1620215884 0.029490068554878235 -0.11526013165712357 0.46096086502075195 -0.5064060091972351 0 0 0 0
1620431768 0.02844136767089367 -0.1156352236866951 0.45707759261131287 -0.5089506506919861 0 0 0 0
1620647652 0.027749713510274887 -0.11489243060350418 0.4538767337799072 -0.5109280347824097 0 0 0 0
1620863536 0.026850806549191475 -0.11484097689390182 0.4516659379005432 -0.5129725337028503 0 0 0 0
1621079420 0.026457732543349266 -0.11443646997213364 0.4497286379337311 -0.5153655409812927 0 0 0 0
1621295304 0.02552301064133644 -0.11434492468833923 0.44676637649536133 -0.517501950263977 0 0 0 0
1621511188 0.024637093767523766 -0.11365073919296265 0.44466328620910645 -0.5201367139816284 0 0 0 0
1621727072 0.024530991911888123 -0.11349478363990784 0.44133925437927246 -0.521791934967041 0 0 0 0
1621942956 0.023089151829481125 -0.11333051323890686 0.4391925036907196 -0.5249686241149902 0 0 0 0
1622158840 0.022472351789474487 -0.11280728876590729 0.43551868200302124 -0.5266852378845215 0 0 0 0
1622374724 0.02179783582687378 -0.11272820085287094 0.4336261451244354 -0.5287953019142151 0 0 0 0
1622590608 0.021093599498271942 -0.11252772808074951 0.4315820634365082 -0.5306481719017029 0 0 0 0
1622806492 0.020718850195407867 -0.1124207079410553 0.4282347857952118 -0.5327156782150269 0 0 0 0
1623022376 0.019634472206234932 -0.11182015389204025 0.4259653091430664 -0.5359482765197754 0 0 0 0
1623238260 0.019020963460206985 -0.11133936792612076 0.42416563630104065 -0.5367205142974854 0 0 0 0
1623454144 0.018807291984558105 -0.11093233525753021 0.42188817262649536 -0.5391413569450378 0 0 0 0
1623670028 0.01791270822286606 -0.11087553203105927 0.4183184802532196 -0.5414867401123047 0 0 0 0
1623885912 0.01727006770670414 -0.1101914569735527 0.4159795641899109 -0.5415897369384766 0 0 0 0
1624101796 0.016490144655108452 -0.10984691977500916 0.4124729335308075 -0.5458551049232483 0 0 0 0
1624317680 0.015251737087965012 -0.11008011549711227 0.4091082811355591 -0.5468805432319641 0 0 0 0
1624533564 0.014754083938896656 -0.10912632942199707 0.40721622109413147 -0.5486595034599304 0 0 0 0
1624749448 0.014438158832490444 -0.1089261993765831 0.40483248233795166 -0.5519663095474243 0 0 0 0
1624965332 0.014301042072474957 -0.10832701623439789 0.4024852514266968 -0.5534204840660095 0 0 0 0
1625181216 0.013104064390063286 -0.1077573150396347 0.3975535035133362 -0.5561319589614868 0 0 0 0
1625397100 0.012153677642345428 -0.10778634995222092 0.3973924219608307 -0.5566549301147461 0 0 0 0
1625612984 0.011636275798082352 -0.10752169787883759 0.39182963967323303 -0.55902498960495 0 0 0 0
1625828868 0.011135880835354328 -0.10687729716300964 0.39092904329299927 -0.5602326393127441 0 0 0 0
1626044752 0.010513239540159702 -0.1063695028424263 0.38874924182891846 -0.5621254444122314 0 0 0 0
1626260636 0.009766907431185246 -0.10627700388431549 0.38426944613456726 -0.5651987791061401 0 0 0 0
1626476520 0.00843134056776762 -0.10585090517997742 0.3812652826309204 -0.566480278968811 0 0 0 0
1626692404 0.00862858910113573 -0.10521987825632095 0.379815012216568 -0.5676243305206299 0 0 0 0
1626908288 0.0076054660603404045 -0.10471461713314056 0.3773399889469147 -0.5699019432067871 0 0 0 0
1627124172 0.0072225164622068405 -0.10398492962121964 0.37469178438186646 -0.5722110867500305 0 0 0 0
1627340056 0.006675775162875652 -0.1033596321940422 0.37179505825042725 -0.5737687945365906 0 0 0 0
1627555940 0.005802134983241558 -0.10315924882888794 0.36942532658576965 -0.5756538510322571 0 0 0 0
1627771824 0.005821419879794121 -0.10290317982435226 0.3666146397590637 -0.5769051313400269 0 0 0 0
1627987708 0.0043945154175162315 -0.10229672491550446 0.3630986511707306 -0.5790758728981018 0 0 0 0
1628203592 0.0044108787551522255 -0.10177312791347504 0.3591301739215851 -0.5816324353218079 0 0 0 0
1628419476 0.0034699495881795883 -0.10104647278785706 0.3576084077358246 -0.5824975967407227 0 0 0 0
1628635360 0.0023651132360100746 -0.10068195313215256 0.354890376329422 -0.5844178795814514 0 0 0 0
1628851244 0.002800089307129383 -0.10001982003450394 0.3523477613925934 -0.5862382054328918 0 0 0 0
1629067128 0.0017294446006417274 -0.09967910498380661 0.3475285470485687 -0.5878300666809082 0 0 0 0
1629283012 0.001313256099820137 -0.09919112920761108 0.34615927934646606 -0.5892419815063477 0 0 0 0
1629498896 0.0006783017888665199 -0.0983128547668457 0.34304141998291016 -0.5910963416099548 0 0 0 0
1629714780 -0.00020637735724449158 -0.09798021614551544 0.3394012749195099 -0.5923773646354675 0 0 0 0
1629930664 -0.0007507717236876488 -0.09766892343759537 0.3360530436038971 -0.5942379832267761 0 0 0 0
1630146548 -0.001090805046260357 -0.09705673903226852 0.333690345287323 -0.5962260961532593 0 0 0 0
1630362432 -0.0016296403482556343 -0.09632222354412079 0.3317736089229584 -0.5980372428894043 0 0 0 0
1630578316 -0.0026927758008241653 -0.09572535008192062 0.3279484510421753 -0.5995240807533264 0 0 0 0
1630794200 -0.0031229527667164803 -0.0954076498746872 0.3249703049659729 -0.6004652976989746 0 0 0 0
1631010084 -0.0034375637769699097 -0.09450989961624146 0.32140564918518066 -0.6011280417442322 0 0 0 0
1631225968 -0.0038789287209510803 -0.09383543580770493 0.3188728988170624 -0.6036380529403687 0 0 0 0
1631441852 -0.004064157605171204 -0.09360752999782562 0.31854724884033203 -0.6047545671463013 0 0 0 0
1631657736 -0.005131320096552372 -0.09251808375120163 0.3128647208213806 -0.6070135831832886 0 0 0 0
1631873620 -0.005583416670560837 -0.0920071005821228 0.3092641830444336 -0.6087132096290588 0 0 0 0
1632089504 -0.005982237868010998 -0.09130708873271942 0.30716443061828613 -0.608924150466919 0 0 0 0
1632305388 -0.0063184574246406555 -0.09073148667812347 0.3052869439125061 -0.612804651260376 0 0 0 0
1632521272 -0.006921102292835712 -0.09004558622837067 0.3011348247528076 -0.6126596927642822 0 0 0 0
1632737156 -0.007815803401172161 -0.08948073536157608 0.2968505620956421 -0.6161512136459351 0 0 0 0
1632953040 -0.008743837475776672 -0.08881859481334686 0.2948792278766632 -0.6147366762161255 0 0 0 0
1633168924 -0.008633391931653023 -0.08854854106903076 0.2936187982559204 -0.615592360496521 0 0 0 0
1633384808 -0.009113043546676636 -0.08751142770051956 0.289193332195282 -0.6187514066696167 0 0 0 0
1633600692 -0.009516212157905102 -0.08672735095024109 0.2866220474243164 -0.6196954846382141 0 0 0 0
1633816576 -0.009515633806586266 -0.08625248074531555 0.2845952808856964 -0.6218203902244568 0 0 0 0
1634032460 -0.010536415502429008 -0.08592134714126587 0.2799025774002075 -0.6234289407730103 0 0 0 0
1634248344 -0.010836432687938213 -0.08503798395395279 0.27715709805488586 -0.6229920387268066 0 0 0 0
1634464228 -0.011035735718905926 -0.08434158563613892 0.2738826870918274 -0.6245115399360657 0 0 0 0
1634680112 -0.012176708318293095 -0.08340415358543396 0.27191784977912903 -0.6255449652671814 0 0 0 0
1634895996 -0.012476115487515926 -0.08300728350877762 0.26607954502105713 -0.6264861226081848 0 0 0 0
1635111880 -0.01271009910851717 -0.08259722590446472 0.26403677463531494 -0.6297605633735657 0 0 0 0
1635327764 -0.012947949580848217 -0.08131585270166397 0.26243677735328674 -0.629482626914978 0 0 0 0
1635543648 -0.013599037192761898 -0.08097321540117264 0.2595582604408264 -0.6303026676177979 0 0 0 0
1635759532 -0.014120680280029774 -0.0802631676197052 0.25484031438827515 -0.6330162286758423 0 0 0 0
1635975416 -0.014028136618435383 -0.07948009669780731 0.2519935667514801 -0.6348426938056946 0 0 0 0
1636191300 -0.014499064534902573 -0.07834627479314804 0.24948973953723907 -0.6363051533699036 0 0 0 0
1636407184 -0.015086769126355648 -0.07801605015993118 0.2472822368144989 -0.6349011063575745 0 0 0 0
1636623068 -0.015294491313397884 -0.07704612612724304 0.24354366958141327 -0.6389276385307312 0 0 0 0
1636838952 -0.016079522669315338 -0.07611651718616486 0.2395172417163849 -0.6384226083755493 0 0 0 0
1637054836 -0.015965426340699196 -0.0756806880235672 0.23750177025794983 -0.64128178358078 0 0 0 0
1637270720 -0.016425656154751778 -0.07511471956968307 0.2356681227684021 -0.6423819065093994 0 0 0 0
1637486604 -0.016485730186104774 -0.07412770390510559 0.2320331633090973 -0.6425161957740784 0 0 0 0
1637702488 -0.017005134373903275 -0.07321267575025558 0.2281455099582672 -0.6436679363250732 0 0 0 0
1637918372 -0.017477668821811676 -0.07241274416446686 0.22541368007659912 -0.6447910070419312 0 0 0 0
1638134256 -0.017704010009765625 -0.0717909187078476 0.2224634885787964 -0.6459200978279114 0 0 0 0
1638350140 -0.018599819391965866 -0.07092010974884033 0.2169361561536789 -0.6459630131721497 0 0 0 0
1638566024 -0.018862346187233925 -0.07035307586193085 0.21543985605239868 -0.6472389698028564 0 0 0 0
1638781908 -0.018667813390493393 -0.06977800279855728 0.21168997883796692 -0.6482783555984497 0 0 0 0
1638997792 -0.01927029713988304 -0.0692010223865509 0.20852653682231903 -0.6519599556922913 0 0 0 0
1639213676 -0.01946825347840786 -0.06854230165481567 0.20532609522342682 -0.6495162844657898 0 0 0 0
1639429560 -0.01976463571190834 -0.06714189052581787 0.2015698254108429 -0.6520348191261292 0 0 0 0
1639645444 -0.020059937611222267 -0.06640248745679855 0.20098741352558136 -0.6527552008628845 0 0 0 0
1639861328 -0.020413897931575775 -0.06614280492067337 0.19505533576011658 -0.6533469557762146 0 0 0 0
1640077212 -0.020338334143161774 -0.06487233936786652 0.19283252954483032 -0.6555330157279968 0 0 0 0
1640293096 -0.020669812336564064 -0.06450336426496506 0.19105032086372375 -0.6546618342399597 0 0 0 0
1640508980 -0.021261680871248245 -0.06354273110628128 0.1847737729549408 -0.6565349698066711 0 0 0 0
1640724864 -0.021742602810263634 -0.06255923211574554 0.18295283615589142 -0.655845582485199 0 0 0 0
1640940748 -0.02163676545023918 -0.06183215603232384 0.17977869510650635 -0.658870279788971 0 0 0 0
1641156632 -0.02170788310468197 -0.060901250690221786 0.17618806660175323 -0.6609537601470947 0 0 0 0
1641372516 -0.022078825160861015 -0.06065799668431282 0.17454007267951965 -0.6607289910316467 0 0 0 0
1641588400 -0.02183782123029232 -0.05980340763926506 0.17123588919639587 -0.662075936794281 0 0 0 0
1641804284 -0.022237388417124748 -0.058436110615730286 0.16693511605262756 -0.66118323802948 0 0 0 0
1642020168 -0.022409899160265923 -0.05799785256385803 0.16512705385684967 -0.6633120179176331 0 0 0 0
1642236052 -0.022960441187024117 -0.057118289172649384 0.16269049048423767 -0.6629120111465454 0 0 0 0
1642451936 -0.022823091596364975 -0.05623914301395416 0.1573740541934967 -0.6646078824996948 0 0 0 0
1642667820 -0.023066166788339615 -0.055109959095716476 0.15487124025821686 -0.6647092700004578 0 0 0 0
1642883704 -0.023672953248023987 -0.05442798510193825 0.1513954997062683 -0.6659499406814575 0 0 0 0
1643099588 -0.023392312228679657 -0.05383458733558655 0.14838092029094696 -0.6656146049499512 0 0 0 0
1643315472 -0.023628944531083107 -0.05256035551428795 0.14514516294002533 -0.6670953035354614 0 0 0 0
1643531356 -0.02388543076813221 -0.05188441276550293 0.14222417771816254 -0.667536735534668 0 0 0 0
1643747240 -0.023451877757906914 -0.05132365599274635 0.13955235481262207 -0.6687427759170532 0 0 0 0
1643963124 -0.023681851103901863 -0.05064880847930908 0.1382225751876831 -0.6696652770042419 0 0 0 0
1644179008 -0.02384374663233757 -0.04912779852747917 0.13221393525600433 -0.6705419421195984 0 0 0 0
1644394892 -0.024111950770020485 -0.04858916252851486 0.12859977781772614 -0.6712011694908142 0 0 0 0
1644610776 -0.024324240162968636 -0.047739580273628235 0.12689758837223053 -0.671318769454956 0 0 0 0
1644826660 -0.024823330342769623 -0.04671889543533325 0.12276116758584976 -0.6711101531982422 0 0 0 0
1645042544 -0.02469000034034252 -0.046273212879896164 0.11754804104566574 -0.6722813248634338 0 0 0 0
1645258428 -0.0245262011885643 -0.04550502449274063 0.11682672053575516 -0.6718655228614807 0 0 0 0
1645474312 -0.024664336815476418 -0.04443497955799103 0.11329512298107147 -0.6740342378616333 0 0 0 0
1645690196 -0.024907490238547325 -0.04368841275572777 0.11024996638298035 -0.6741358041763306 0 0 0 0
1645906080 -0.025038089603185654 -0.042752865701913834 0.10742226243019104 -0.6738429665565491 0 0 0 0
1646121964 -0.02506277523934841 -0.042079661041498184 0.10219799727201462 -0.675195574760437 0 0 0 0
1646337848 -0.024919016286730766 -0.04116642847657204 0.10089779645204544 -0.6760141849517822 0 0 0 0
1646553732 -0.02530844882130623 -0.040443889796733856 0.09620321542024612 -0.6750794649124146 0 0 0 0
1646769616 -0.025064347311854362 -0.039175719022750854 0.09331230819225311 -0.6765839457511902 0 0 0 0
1646985500 -0.0252859927713871 -0.038115065544843674 0.08983016759157181 -0.6772597432136536 0 0 0 0
1647201384 -0.025296440348029137 -0.037900734692811966 0.08656981587409973 -0.6768244504928589 0 0 0 0
1647417268 -0.025206783786416054 -0.036924343556165695 0.08336377143859863 -0.6772884130477905 0 0 0 0
1647633152 -0.025020508095622063 -0.03580361232161522 0.08146194368600845 -0.6784548759460449 0 0 0 0
1647849036 -0.025619376450777054 -0.03486483916640282 0.07573538273572922 -0.6779794692993164 0 0 0 0
1648064920 -0.025015968829393387 -0.03432805463671684 0.07429060339927673 -0.6796948313713074 0 0 0 0
1648280804 -0.025439472869038582 -0.033297717571258545 0.07040434330701828 -0.6781333684921265 0 0 0 0
1648496688 -0.02514439821243286 -0.03259219974279404 0.06632622331380844 -0.6781819462776184 0 0 0 0
1648712572 -0.02498476207256317 -0.03202560171484947 0.06376346200704575 -0.6794852614402771 0 0 0 0
1648928456 -0.0250058863312006 -0.03049657493829727 0.06115373596549034 -0.6805382966995239 0 0 0 0
1649144340 -0.025039462372660637 -0.029726222157478333 0.05772124603390694 -0.6797288656234741 0 0 0 0
1649360224 -0.024666283279657364 -0.028927212581038475 0.054050713777542114 -0.6822831034660339 0 0 0 0
1649576108 -0.025017958134412766 -0.028048474341630936 0.051291387528181076 -0.6804265379905701 0 0 0 0
1649791992 -0.024837380275130272 -0.0273677259683609 0.047984760254621506 -0.6802583336830139 0 0 0 0
1650007876 -0.024501346051692963 -0.026147089898586273 0.04477445408701897 -0.6818356513977051 0 0 0 0
1650223760 -0.02467484027147293 -0.025780489668250084 0.04176811873912811 -0.6817964315414429 0 0 0 0
1650439644 -0.024635009467601776 -0.02490953914821148 0.03521598130464554 -0.6818865537643433 0 0 0 0
1650655528 -0.02473863773047924 -0.02380157820880413 0.03563295304775238 -0.6817895770072937 0 0 0 0
1650871412 -0.024612531065940857 -0.0229891799390316 0.03133980929851532 -0.681948721408844 0 0 0 0
1651087296 -0.02442069910466671 -0.022064458578824997 0.028935691341757774 -0.6821107268333435 0 0 0 0
1651303180 -0.023860128596425056 -0.02113494649529457 0.0250526312738657 -0.682308554649353 0 0 0 0
1651519064 -0.02399750053882599 -0.020739689469337463 0.020990924909710884 -0.6823765635490417 0 0 0 0
1651734948 -0.02398419752717018 -0.019370557740330696 0.01941787078976631 -0.6827432513237 0 0 0 0
1651950832 -0.02353542111814022 -0.018838224932551384 0.013905682601034641 -0.6831824779510498 0 0 0 0
1652166716 -0.023522302508354187 -0.01818040758371353 0.009760496206581593 -0.6832718849182129 0 0 0 0
1652382600 -0.023205827921628952 -0.017383873462677002 0.008534841239452362 -0.6823215484619141 0 0 0 0
1652598484 -0.02320941910147667 -0.016045937314629555 0.004998666234314442 -0.6822496056556702 0 0 0 0
1652814368 -0.023402782157063484 -0.015635240823030472 0.0017228387296199799 -0.681525707244873 0 0 0 0
1653030252 -0.02255679853260517 -0.014416045509278774 -0.002631065435707569 -0.6829182505607605 0 0 0 0
1653246136 -0.02230309695005417 -0.013750475831329823 -0.005013518035411835 -0.683118462562561 0 0 0 0
1653462020 -0.022393396124243736 -0.013252660632133484 -0.00804875884205103 -0.6825850009918213 0 0 0 0
1653677904 -0.022282863035798073 -0.012262394651770592 -0.012670667842030525 -0.6823099255561829 0 0 0 0
1653893788 -0.022068003192543983 -0.011287140659987926 -0.0131027577444911 -0.682426929473877 0 0 0 0
1654109672 -0.021872153505682945 -0.010099189355969429 -0.01876894198358059 -0.6820675134658813 0 0 0 0
1654325556 -0.021678201854228973 -0.009638037532567978 -0.019843148067593575 -0.6813143491744995 0 0 0 0
1654541440 -0.02151225320994854 -0.008751175366342068 -0.025566408410668373 -0.6811479926109314 0 0 0 0
1654757324 -0.020644988864660263 -0.007907383143901825 -0.027608640491962433 -0.6825677752494812 0 0 0 0
1654973208 -0.02074875682592392 -0.006869038566946983 -0.029988843947649002 -0.6811181306838989 0 0 0 0
1655189092 -0.020572388544678688 -0.0064031220972537994 -0.03477664291858673 -0.6822084188461304 0 0 0 0
1655404976 -0.020418915897607803 -0.005400035530328751 -0.03936328366398811 -0.6821792125701904 0 0 0 0
1655620860 -0.019640622660517693 -0.005078277550637722 -0.040851958096027374 -0.6828937530517578 0 0 0 0
1655836744 -0.019680261611938477 -0.003845728002488613 -0.04478864744305611 -0.6823406219482422 0 0 0 0
1656052628 -0.019397344440221786 -0.003290519118309021 -0.046164385974407196 -0.6798810362815857 0 0 0 0
1656268512 -0.019207831472158432 -0.0023163771256804466 -0.050744883716106415 -0.6804580092430115 0 0 0 0
1656484396 -0.01887318305671215 -0.0016508279368281364 -0.05417998135089874 -0.6807423830032349 0 0 0 0
1656700280 -0.018540026620030403 -0.0004775412380695343 -0.056628286838531494 -0.6808878183364868 0 0 0 0
1656916164 -0.017848897725343704 0.00012502912431955338 -0.06268525123596191 -0.6811211705207825 0 0 0 0
1657132048 -0.01783735863864422 0.0007632412016391754 -0.0638771504163742 -0.6795782446861267 0 0 0 0
1657347932 -0.017873095348477364 0.0016501694917678833 -0.06663732975721359 -0.6789957284927368 0 0 0 0
1657563816 -0.01719527877867222 0.0028508463874459267 -0.0707421600818634 -0.6797077059745789 0 0 0 0
1657779700 -0.017157692462205887 0.00315186008810997 -0.0738409012556076 -0.6781915426254272 0 0 0 0
1657995584 -0.0163316298276186 0.004345227964222431 -0.07805422693490982 -0.677979052066803 0 0 0 0
1658211468 -0.016247909516096115 0.005215877667069435 -0.07947389781475067 -0.6782554984092712 0 0 0 0
1658427352 -0.01573251374065876 0.005978303030133247 -0.08383026719093323 -0.6792750954627991 0 0 0 0
1658643236 -0.015313500538468361 0.006354156881570816 -0.08699986338615417 -0.67669677734375 0 0 0 0
1658859120 -0.014542410150170326 0.0072130365297198296 -0.08957038074731827 -0.6790787577629089 0 0 0 0
1659075004 -0.014770775102078915 0.007912227883934975 -0.09409553557634354 -0.6764755845069885 0 0 0 0
1659290888 -0.014428790658712387 0.00893140397965908 -0.09537947922945023 -0.67667156457901 0 0 0 0
1659506772 -0.0137618537992239 0.009750302881002426 -0.10049007087945938 -0.6758815050125122 0 0 0 0
1659722656 -0.013268542475998402 0.01072988286614418 -0.10186893492937088 -0.6782887578010559 0 0 0 0
1659938540 -0.012923287227749825 0.011374138295650482 -0.1054927259683609 -0.6753372550010681 0 0 0 0
1660154424 -0.012780477292835712 0.011863548308610916 -0.1094922199845314 -0.6748251914978027 0 0 0 0
1660370308 -0.012068863026797771 0.012913888320326805 -0.11311283707618713 -0.6744897961616516 0 0 0 0
1660586192 -0.011816602200269699 0.013512266799807549 -0.11840465664863586 -0.6727958917617798 0 0 0 0
1660802076 -0.01105054747313261 0.014317305758595467 -0.11810040473937988 -0.6724112033843994 0 0 0 0
1661017960 -0.010836709290742874 0.014884059317409992 -0.12248430401086807 -0.6721732020378113 0 0 0 0
1661233844 -0.010637706145644188 0.01572742871940136 -0.12467368692159653 -0.6709775924682617 0 0 0 0
1661449728 -0.010083855129778385 0.0163080133497715 -0.1287982165813446 -0.6707337498664856 0 0 0 0
1661665612 -0.010027327574789524 0.017229925841093063 -0.13006587326526642 -0.6707138419151306 0 0 0 0
