#  HZ   S   RI   R     50.0 
! Rohde & Schwarz ZVL 
! 
! 
! 
 1.720000000000000E9     4.762213939102367E-5   5.156339910091020E-1  -8.385445922613144E-2  -6.001353985257271E-1  -1.027041897177696E-1  -7.042958520348324E-1   2.597666680812836E-1   6.194805816748793E-1  
 1.724450000000000E9     6.423787027597427E-2   5.514061926534214E-1  -1.366031020879746E-1  -5.962041442523052E-1  -2.144059389829636E-1  -6.605104488756124E-1   3.244521021842957E-1   5.888332959494730E-1  
 1.728900000000000E9     1.481323391199112E-1   5.601909393295294E-1  -2.117384821176529E-1  -5.832217503426245E-1  -3.300373256206513E-1  -5.897167566903279E-1   3.867011070251465E-1   5.801637479165799E-1  
 1.733350000000000E9     2.275698781013489E-1   5.604829449968569E-1  -2.652616500854492E-1  -5.758577229191360E-1  -3.961367309093475E-1  -5.222343638004506E-1   4.262873828411102E-1   5.566241528399577E-1  
 1.737800000000000E9     3.009978532791138E-1   5.418248670264426E-1  -3.636437356472015E-1  -5.388710712319564E-1  -4.527378380298615E-1  -4.488061552335955E-1   4.823474884033203E-1   5.575942219176128E-1  
 1.742250000000000E9     3.603340387344360E-1   5.233136042204307E-1  -4.326414763927460E-1  -5.102204321662469E-1  -4.765982329845429E-1  -3.966140924188740E-1   4.932698011398315E-1   5.213417167852585E-1  
 1.746700000000000E9     4.564433991909027E-1   4.554445370924808E-1  -5.209258794784546E-1  -4.488747062162731E-1  -5.250371694564819E-1  -3.082153405208416E-1   5.514392852783203E-1   5.255622333350648E-1  
 1.751150000000000E9     4.891360104084015E-1   4.088382777055596E-1  -6.053895354270935E-1  -3.570229493042793E-1  -5.397572517395020E-1  -2.682453439185148E-1   5.914775729179382E-1   4.791709168672845E-1  
 1.755600000000000E9     5.499934554100037E-1   3.344203515657764E-1  -6.645723581314087E-1  -2.654646586291889E-1  -5.630226731300354E-1  -2.066120524258085E-1   6.421144008636475E-1   4.483324245465147E-1  
 1.760050000000000E9     5.746403932571411E-1   2.703352520173658E-1  -7.060841321945190E-1  -1.563226076577081E-1  -5.840658545494080E-1  -1.469812164391141E-1   6.565834283828735E-1   4.744339216106718E-1  
 1.764500000000000E9     5.961854457855225E-1   1.725988918622213E-1  -7.256842255592346E-1  -4.190821723240840E-2  -6.062363982200623E-1  -9.366295018854381E-2   6.914092302322388E-1   4.400421347573040E-1  
 1.768950000000000E9     5.763039588928223E-1   1.061616332500737E-1  -7.239539623260498E-1   5.454730483130199E-2  -6.297425627708435E-1   2.900856780781058E-3   7.496904134750366E-1   3.892434571556336E-1  
 1.773400000000000E9     5.514133572578430E-1   2.334934018455928E-2  -7.064800858497620E-1   1.719481252634621E-1  -6.482676863670349E-1   7.300657923759735E-2   7.680727839469910E-1   3.527492307116030E-1  
 1.777850000000000E9     5.117084383964539E-1  -5.683347911000772E-2  -6.712103486061096E-1   2.739108753501640E-1  -6.572648286819458E-1   1.678720092255032E-1   7.829117774963379E-1   3.128663745243739E-1  
 1.782300000000000E9     4.558420181274414E-1  -9.949248565112581E-2  -6.352753043174744E-1   3.444305067004685E-1  -6.479997038841248E-1   2.756643961911038E-1   8.217488527297974E-1   2.709018861409830E-1  
 1.786750000000000E9     4.029320478439331E-1  -1.358926370411481E-1  -5.688509941101074E-1   4.474789574519932E-1  -6.289356946945190E-1   3.691326045827648E-1   8.310928344726563E-1   2.202401217541356E-1  
 1.791200000000000E9     3.284641206264496E-1  -1.649958860339240E-1  -4.907436668872833E-1   5.317489533336008E-1  -5.696657896041870E-1   4.828427868101516E-1   8.135733604431152E-1   1.819642357945952E-1  
 1.795650000000000E9     2.759330570697784E-1  -1.645160426244077E-1  -3.946188390254974E-1   6.040086377925751E-1  -4.839694797992706E-1   5.803806184392608E-1   8.180418610572815E-1   1.425327479008697E-1  
 1.800100000000000E9     2.161160111427307E-1  -1.727174529666754E-1  -3.126828074455261E-1   6.471460244326720E-1  -3.619708418846130E-1   6.658370659956578E-1   7.937378287315369E-1   1.274495542334677E-1  
 1.804550000000000E9     1.649295091629028E-1  -1.591441265785297E-1  -1.998044252395630E-1   6.875287093253003E-1  -2.492154836654663E-1   7.146974172261340E-1   7.866684794425964E-1   1.278094247851996E-1  
 1.809000000000000E9     1.194369941949844E-1  -1.393497352385958E-1  -6.651828438043594E-2   7.079819490261354E-1  -9.342705458402634E-2   7.430739252179701E-1   7.796288728713989E-1   1.207454943071041E-1  
 1.813450000000000E9     8.269907534122467E-2  -1.091756058012539E-1   1.218780688941479E-2   7.024340328509184E-1   2.053118497133255E-2   7.371259649942414E-1   7.644722461700440E-1   1.293767171632838E-1  
 1.817900000000000E9     4.315679147839546E-2  -7.862326306292801E-2   1.359837353229523E-1   6.786846015806135E-1   1.425743401050568E-1   7.067758227225414E-1   8.135296106338501E-1   1.619681421103431E-1  
 1.822350000000000E9     9.185811504721642E-3  -3.408316137691365E-2   2.508781850337982E-1   6.296662494525089E-1   2.448385506868362E-1   6.527484785492723E-1   8.786981701850891E-1   1.770867275206957E-1  
 1.826800000000000E9    -1.118503231555224E-2   1.958228428229342E-2   3.342028260231018E-1   5.664970192624457E-1   3.401966989040375E-1   5.706328902921589E-1   9.157855510711670E-1   1.668130040517080E-1  
 1.831250000000000E9    -1.671640947461128E-2   7.826031978626519E-2   3.930799663066864E-1   4.988330997468570E-1   4.027730822563171E-1   4.818504159739112E-1   1.009993791580200   1.477653244233034E-1  
 1.835700000000000E9    -4.035061690956354E-3   1.297161553765513E-1   4.462057054042816E-1   4.144410556434631E-1   4.330853521823883E-1   3.988085093832746E-1   1.081837296485901   1.098419667372621E-1  
 1.840150000000000E9     1.407957728952169E-2   1.870510228095711E-1   4.758464097976685E-1   3.324910677355919E-1   4.541783630847931E-1   3.115591888910995E-1   1.189979195594788   3.463913756406740E-2  
 1.844600000000000E9     4.640484973788261E-2   2.251481960855832E-1   4.939518570899963E-1   2.461939006260758E-1   4.494746327400208E-1   2.540974834519104E-1   1.329651832580566  -4.243533707892396E-2  
 1.849050000000000E9     8.432283252477646E-2   2.691014894015075E-1   4.890739321708679E-1   1.907591193898743E-1   4.505439996719360E-1   1.905969052922917E-1   1.420433402061462  -1.564176277877890E-1  
 1.853500000000000E9     1.356170475482941E-1   2.949270362224326E-1   4.823146760463715E-1   1.383907501610953E-1   4.464041292667389E-1   1.498454429086719E-1   1.535657525062561  -2.919403680771012E-1  
 1.857950000000000E9     1.936765164136887E-1   3.056000975100538E-1   4.782286286354065E-1   6.848625682288229E-2   4.445071518421173E-1   1.113574922172275E-1   1.618283748626709  -4.318397406767788E-1  
 1.862400000000000E9     2.382842749357224E-1   3.138908035074933E-1   4.679490327835083E-1   4.022498986046495E-2   4.495022594928742E-1   6.635567920272337E-2   1.707844138145447  -7.553470771558314E-1  
 1.866850000000000E9     2.925594449043274E-1   3.198873773353194E-1   4.606694579124451E-1  -1.045863177576493E-2   4.544851779937744E-1   3.840471532608854E-2   1.763302206993103  -9.658514681651803E-1  
 1.871300000000000E9     3.362114727497101E-1   3.083657865312706E-1   4.540005922317505E-1  -5.453618911473869E-2   4.661459028720856E-1  -7.693355431446114E-3   1.646044731140137  -1.368718231561446  
 1.875750000000000E9     3.907955884933472E-1   2.885794094112002E-1   4.476403295993805E-1  -9.628520114617080E-2   4.782640933990479E-1  -3.984962559841551E-2   1.500201463699341  -1.594869857454822  
 1.880200000000000E9     4.371789991855621E-1   2.752859865192038E-1   4.459171295166016E-1  -1.263193259674261E-1   4.903031587600708E-1  -9.188794074123130E-2   1.389727234840393  -1.897226246410016  
 1.884650000000000E9     4.701389074325562E-1   2.478311404119074E-1   4.425801336765289E-1  -1.612672080450426E-1   4.959319531917572E-1  -1.589920881842069E-1   9.039733409881592E-1  -2.152584032230382  
 1.889100000000000E9     5.144515633583069E-1   2.190927818743002E-1   4.277746379375458E-1  -2.258118942485187E-1   4.915081858634949E-1  -2.262245460954274E-1   7.166035175323486E-1  -2.092250489081542  
 1.893550000000000E9     5.433902144432068E-1   1.921277968279911E-1   4.136143922805786E-1  -2.752916868746290E-1   4.758580625057221E-1  -2.950624658135610E-1   3.098610937595367E-1  -2.171814683379501  
 1.898000000000000E9     5.687431693077087E-1   1.323032647109070E-1   3.874447047710419E-1  -3.341568011958211E-1   4.300702810287476E-1  -3.813826807414190E-1   7.764588296413422E-2  -1.999849868596451  
 1.902450000000000E9     5.969049334526062E-1   8.584364356671499E-2   3.472226560115814E-1  -3.962220083848796E-1   3.596976995468140E-1  -4.659143177592805E-1  -2.261822968721390E-1  -1.760676735877704  
 1.906900000000000E9     6.089568138122559E-1   3.502636438638558E-2   3.062449693679810E-1  -4.480091525528739E-1   3.090901672840118E-1  -5.101643666383111E-1  -2.292897850275040E-1  -1.576729552709481  
 1.911350000000000E9     6.265862584114075E-1   1.220273913909303E-3   2.495020478963852E-1  -4.977254803971205E-1   2.202740311622620E-1  -5.558689707400848E-1  -2.275376468896866E-1  -1.425214463687843  
 1.915800000000000E9     6.265770196914673E-1  -5.723651384446005E-2   1.741864979267120E-1  -5.426627791751265E-1   1.380475461483002E-1  -5.844712428180833E-1  -1.497891843318939E-1  -1.358563291297655  
 1.920250000000000E9     6.220275759696960E-1  -1.122153111257481E-1   9.752912074327469E-2  -5.711547546630704E-1   2.828364446759224E-2  -5.982604536109105E-1  -1.310848593711853E-1  -1.327125617404014  
 1.924700000000000E9     6.092015504837036E-1  -1.610103347078226E-1   5.458423984237015E-4  -5.851086998963562E-1  -6.108570471405983E-2  -5.894848380451407E-1  -5.344004929065704E-2  -1.365731627058944  
 1.929150000000000E9     5.923632383346558E-1  -2.039233817332122E-1  -9.325540810823441E-2  -5.772845530281981E-1  -1.602890193462372E-1  -5.544527230198089E-1  -4.909460619091988E-2  -1.431992599236543  
 1.933600000000000E9     5.636662244796753E-1  -2.639481807123871E-1  -1.835005581378937E-1  -5.491358122088477E-1  -2.173199504613876E-1  -5.101603821521055E-1  -2.106747776269913E-1  -1.535388359908426  
 1.938050000000000E9     5.176633000373840E-1  -2.952936317574871E-1  -2.663645744323731E-1  -5.011208212460221E-1  -2.912810146808624E-1  -4.388687475531720E-1  -2.496567964553833E-1  -1.548313320836232  
 1.942500000000000E9     4.834544658660889E-1  -3.098041686131864E-1  -3.164860904216766E-1  -4.500558794247024E-1  -3.255106806755066E-1  -3.765614936270459E-1  -5.114310979843140E-1  -1.614354366488082  
 1.946950000000000E9     4.286552965641022E-1  -3.416049007591701E-1  -3.663519918918610E-1  -3.850859134531015E-1  -3.495326340198517E-1  -3.127113341264023E-1  -5.888938307762146E-1  -1.442133083968545  
 1.951400000000000E9     3.933857381343842E-1  -3.414829489404780E-1  -3.989505767822266E-1  -3.219971545940974E-1  -3.574444353580475E-1  -2.673367562505744E-1  -8.028073906898499E-1  -1.338900559765115  
 1.955850000000000E9     3.340465426445007E-1  -3.588349102286140E-1  -4.132895469665527E-1  -2.712566139975490E-1  -3.669220507144928E-1  -2.211358177594649E-1  -8.888991475105286E-1  -1.199584844908072  
 1.960300000000000E9     2.851465940475464E-1  -3.596898910977998E-1  -4.339846670627594E-1  -2.008639504327839E-1  -3.688684999942780E-1  -1.947047785521507E-1  -9.210053682327271E-1  -1.085446653811660  
 1.964750000000000E9     2.433136850595474E-1  -3.456166218271963E-1  -4.383327662944794E-1  -1.588520991635022E-1  -3.746946454048157E-1  -1.762596338673516E-1  -9.822303652763367E-1  -9.151198624046141E-1  
 1.969200000000000E9     2.165606617927551E-1  -3.217094117560357E-1  -4.409407675266266E-1  -1.267938573111583E-1  -3.882183432579041E-1  -1.500226766009840E-1  -9.903880357742310E-1  -8.127659655085858E-1  
 1.973650000000000E9     1.689286530017853E-1  -3.083517375104855E-1  -4.469693601131439E-1  -8.647635783958571E-2  -4.081659913063049E-1  -1.148553352935792E-1  -9.403697848320007E-1  -6.907341852087705E-1  
 1.978100000000000E9     1.336575001478195E-1  -2.820399196584073E-1  -4.545005559921265E-1  -3.393292105291684E-2  -4.280514121055603E-1  -9.437758292422097E-2  -9.670222401618958E-1  -6.199260758398950E-1  
 1.982550000000000E9     1.058557406067848E-1  -2.498047430765328E-1  -4.613727927207947E-1  -1.447325295322945E-2  -4.546711146831513E-1  -5.674224904237998E-2  -9.504059553146362E-1  -5.205077040796875E-1  
 1.987000000000000E9     8.020542562007904E-2  -2.132446318391854E-1  -4.691552519798279E-1   3.881098744958332E-2  -4.808251261711121E-1  -8.644287568702093E-3  -9.165400862693787E-1  -3.956177931384208E-1  
 1.991450000000000E9     5.304201692342758E-2  -1.748196853017904E-1  -4.810824394226074E-1   7.935596221501830E-2  -5.054288506507874E-1   4.578286115302453E-2  -8.981267809867859E-1  -3.470498514287888E-1  
 1.995900000000000E9     3.709073364734650E-2  -1.225861977827148E-1  -4.899411797523499E-1   1.264305983982917E-1  -5.245279073715210E-1   1.042187751811658E-1  -8.598270416259766E-1  -2.787145676055879E-1  
 2.000350000000000E9     3.080249950289726E-2  -6.990712467967956E-2  -4.976806640625000E-1   1.836724728678656E-1  -5.294250845909119E-1   1.817469701833644E-1  -8.097218871116638E-1  -2.034673894305719E-1  
 2.004800000000000E9     4.117635264992714E-2  -6.988540731939873E-3  -4.942305982112885E-1   2.623922224031714E-1  -5.149507522583008E-1   2.739066735284774E-1  -7.588537931442261E-1  -1.525112638293364E-1  
 2.009250000000000E9     5.523164570331574E-2   4.945937007607543E-2  -4.736352562904358E-1   3.534691412219805E-1  -4.794691503047943E-1   3.652983049001036E-1  -7.205252647399902E-1  -8.713150038356821E-2  
 2.013700000000000E9     9.579724818468094E-2   1.025084709614240E-1  -4.509085118770599E-1   4.321255424786399E-1  -4.321609139442444E-1   4.452296140223379E-1  -6.700645685195923E-1  -6.826200113917570E-2  
 2.018150000000000E9     1.479422450065613E-1   1.440926577619944E-1  -4.082695841789246E-1   5.157624073838376E-1  -3.642331957817078E-1   5.202088999738095E-1  -6.184584498405457E-1  -6.394853715851681E-2  
 2.022600000000000E9     2.123728990554810E-1   1.672714463534747E-1  -2.983443140983582E-1   6.199244518440130E-1  -2.856205999851227E-1   5.801502802158395E-1  -5.822381377220154E-1  -6.371985867963918E-2  
 2.027050000000000E9     2.723239958286285E-1   1.805843083863280E-1  -2.108642458915710E-1   6.773606233806166E-1  -2.086780518293381E-1   6.205281344859273E-1  -5.599426031112671E-1  -1.026001336002637E-1  
 2.031500000000000E9     3.379432260990143E-1   1.816320936283672E-1  -9.023637324571610E-2   7.167852147780157E-1  -9.332987666130066E-2   6.527276885206278E-1  -5.379905700683594E-1  -9.078629534786900E-2  
 2.035950000000000E9     4.152957499027252E-1   1.498153603857919E-1   1.200718618929386E-2   7.286201708093435E-1   1.533521804958582E-2   6.585409459916637E-1  -5.513643026351929E-1  -1.405760764829122E-1  
 2.040400000000000E9     4.768976271152496E-1   1.113906653365569E-1   1.822224855422974E-1   6.965492494186253E-1   1.125375032424927E-1   6.414744500114581E-1  -5.793160796165466E-1  -1.456335914870452E-1  
 2.044850000000000E9     5.279749631881714E-1   5.607487164982052E-2   2.851964533329010E-1   6.442446429657109E-1   1.927152425050736E-1   6.129133468020698E-1  -5.928910970687866E-1  -1.387198367530003E-1  
 2.049300000000000E9     5.615562200546265E-1  -1.907450800434620E-2   3.713798224925995E-1   5.684412212504346E-1   2.731700241565704E-1   5.672231761544411E-1  -6.311965584754944E-1  -1.360070584049255E-1  
 2.053750000000000E9     5.871036052703857E-1  -9.185674138487511E-2   4.335927069187164E-1   4.859042140493619E-1   3.526611030101776E-1   5.040222757669626E-1  -6.407361626625061E-1  -1.193504777431868E-1  
 2.058200000000000E9     5.948340892791748E-1  -1.718068659291847E-1   4.780102670192719E-1   3.972892500538687E-1   4.221141934394836E-1   4.339019658645443E-1  -6.710230708122253E-1  -8.518845286446435E-2  
 2.062650000000000E9     5.784543156623840E-1  -2.599715553855292E-1   5.038255453109741E-1   3.158797648772703E-1   4.413879811763763E-1   3.998175740694506E-1  -6.879013180732727E-1  -7.306828576566506E-2  
 2.067100000000000E9     5.617510080337524E-1  -3.181639171421867E-1   5.081161260604858E-1   2.598837014971296E-1   4.860806167125702E-1   3.332495613463014E-1  -6.862105727195740E-1   1.453254820503852E-2  
 2.071550000000000E9     5.040925145149231E-1  -3.962011577105696E-1   5.157456398010254E-1   2.013288074531725E-1   5.123070478439331E-1   2.893502608562582E-1  -6.847720146179199E-1   3.158790475669280E-2  
 2.076000000000000E9     4.318982660770416E-1  -4.631422570462189E-1   5.216519832611084E-1   1.455911860501213E-1   5.498980879783630E-1   2.122026436920764E-1  -6.731328964233398E-1   8.466780515403047E-2  
 2.080450000000000E9     3.763104677200317E-1  -4.997799724303901E-1   5.248000621795654E-1   1.105395159595086E-1   5.742980241775513E-1   1.582553863040628E-1  -6.723522543907166E-1   1.113761055310228E-1  
 2.084900000000000E9     3.088434934616089E-1  -5.264552088923991E-1   5.333514213562012E-1   5.363792069526607E-2   5.975278615951538E-1   7.931949944647032E-2  -6.495490670204163E-1   1.522773705219456E-1  
 2.089350000000000E9     2.285240292549133E-1  -5.459751841334311E-1   5.425494313240051E-1   8.142837164496597E-3   6.108471155166626E-1   1.360109154969974E-2  -6.157566905021668E-1   2.066406649556002E-1  
 2.093800000000000E9     1.273915469646454E-1  -5.516685411915228E-1   5.513995885848999E-1  -5.777721324665458E-2   6.135609149932861E-1  -6.787982663556069E-2  -5.719624757766724E-1   2.602140104361121E-1  
 2.098250000000000E9     5.847617983818054E-2  -5.266140005164841E-1   5.590919852256775E-1  -1.185912921343678E-1   6.036245822906494E-1  -1.617109379972921E-1  -5.518544912338257E-1   2.654053044810946E-1  
 2.102700000000000E9    -2.933966368436813E-2  -4.908627787342644E-1   5.656470060348511E-1  -1.813674089128933E-1   5.824623703956604E-1  -2.397916909827806E-1  -4.846203327178955E-1   3.217080858092879E-1  
 2.107150000000000E9    -8.683912456035614E-2  -4.456692214098119E-1   5.671687126159668E-1  -2.474829060130379E-1   5.612362623214722E-1  -2.989921242486856E-1  -4.460278153419495E-1   3.227895133157534E-1  
 2.111600000000000E9    -1.426833868026733E-1  -3.868673449062677E-1   5.535889863967896E-1  -3.334574053662626E-1   5.085229873657227E-1  -3.894937744040367E-1  -3.875560462474823E-1   3.645778057120656E-1  
 2.116050000000000E9    -1.750569343566895E-1  -3.231334357345697E-1   5.228690505027771E-1  -4.239427511630706E-1   4.644877016544342E-1  -4.508578151349976E-1  -3.139040470123291E-1   3.787135144559863E-1  
 2.120500000000000E9    -1.971160918474197E-1  -2.575941121092582E-1   4.767397642135620E-1  -5.090611281100707E-1   4.073674976825714E-1  -5.153962762047269E-1  -2.667113542556763E-1   3.652289147241887E-1  
 2.124950000000000E9    -1.996537148952484E-1  -1.765340990581356E-1   4.068089425563812E-1  -5.956427144548293E-1   3.669605255126953E-1  -5.579846331656791E-1  -2.021036297082901E-1   3.665882371340485E-1  
 2.129400000000000E9    -1.899205297231674E-1  -1.024220325708000E-1   3.189446926116943E-1  -6.660777576228545E-1   2.771901786327362E-1  -6.255505689706957E-1  -1.465483754873276E-1   3.538487892992341E-1  
 2.133850000000000E9    -1.691499203443527E-1  -4.027852743636337E-2   2.157117277383804E-1  -7.212127558054615E-1   2.137966603040695E-1  -6.689475972200151E-1  -6.393727660179138E-2   3.219064138462920E-1  
 2.138300000000000E9    -1.287141293287277E-1   2.398317118476880E-2   7.319728285074234E-2  -7.621807036081970E-1   1.123735830187798E-1  -7.161943111966798E-1  -3.589476644992828E-2   2.895192787233581E-1  
