# HZ S RI R 50
1620000000 -0.5211548805236816 0.03341788053512573 0.017612965777516365 -0.4809160530567169 0 0 0 0
1620215884 -0.520606279373169 0.03559364005923271 0.01289393287152052 -0.48119333386421204 0 0 0 0
1620431768 -0.5204055309295654 0.03769379481673241 0.01026119664311409 -0.4814380407333374 0 0 0 0
1620647652 -0.5194659233093262 0.039822112768888474 0.0100785531103611 -0.4818716049194336 0 0 0 0
1620863536 -0.5195053815841675 0.04353896155953407 0.005854443646967411 -0.4819006025791168 0 0 0 0
1621079420 -0.5178020000457764 0.04625483229756355 0.004506409168243408 -0.48195528984069824 0 0 0 0
1621295304 -0.5179693698883057 0.04954423010349274 0.0017466843128204346 -0.4821521043777466 0 0 0 0
1621511188 -0.517593502998352 0.050908058881759644 0.00030644237995147705 -0.48208197951316833 0 0 0 0
1621727072 -0.5163930654525757 0.05731195583939552 -0.0008038943633437157 -0.4818623960018158 0 0 0 0
1621942956 -0.51603102684021 0.0568690299987793 -0.00400482676923275 -0.4815009832382202 0 0 0 0
1622158840 -0.5154165625572205 0.061426423490047455 -0.006236054934561253 -0.4829394221305847 0 0 0 0
1622374724 -0.5149252414703369 0.0638742744922638 -0.00733539555221796 -0.48285597562789917 0 0 0 0
1622590608 -0.5135595798492432 0.06664279848337173 -0.01116623543202877 -0.483033150434494 0 0 0 0
1622806492 -0.513022243976593 0.07061593979597092 -0.01309112273156643 -0.4831085205078125 0 0 0 0
1623022376 -0.5127681493759155 0.07217370718717575 -0.014221930876374245 -0.48365944623947144 0 0 0 0
1623238260 -0.5110498666763306 0.07589822262525558 -0.01624462567269802 -0.48339203000068665 0 0 0 0
1623454144 -0.511564314365387 0.07860028743743896 -0.01854914054274559 -0.48400065302848816 0 0 0 0
1623670028 -0.5103755593299866 0.08074792474508286 -0.019549455493688583 -0.48326149582862854 0 0 0 0
1623885912 -0.5090126395225525 0.08517080545425415 -0.024484915658831596 -0.48396286368370056 0 0 0 0
1624101796 -0.509349524974823 0.08723049610853195 -0.023766621947288513 -0.48464253544807434 0 0 0 0
1624317680 -0.5073328614234924 0.08998393267393112 -0.02778981626033783 -0.48365578055381775 0 0 0 0
1624533564 -0.5069701671600342 0.0935610830783844 -0.02975904382765293 -0.4840840995311737 0 0 0 0
1624749448 -0.5068392753601074 0.0945311039686203 -0.03077372908592224 -0.4833810031414032 0 0 0 0
1624965332 -0.505248486995697 0.09832397103309631 -0.033129870891571045 -0.4844868779182434 0 0 0 0
1625181216 -0.5050129294395447 0.10101919621229172 -0.03543272614479065 -0.48340100049972534 0 0 0 0
1625397100 -0.5036143660545349 0.10457725822925568 -0.03802396357059479 -0.48442888259887695 0 0 0 0
1625612984 -0.5036954879760742 0.10629148036241531 -0.038084451109170914 -0.4830039441585541 0 0 0 0
1625828868 -0.5021873116493225 0.10905276983976364 -0.04083356633782387 -0.48344188928604126 0 0 0 0
1626044752 -0.5007603168487549 0.11351995170116425 -0.04343617334961891 -0.4838781952857971 0 0 0 0
1626260636 -0.500460147857666 0.11477524787187576 -0.04531444236636162 -0.4834331274032593 0 0 0 0
1626476520 -0.4989560544490814 0.1180771067738533 -0.0474923774600029 -0.48357921838760376 0 0 0 0
1626692404 -0.49864280223846436 0.12120465189218521 -0.04872903972864151 -0.483875036239624 0 0 0 0
1626908288 -0.4972569942474365 0.12365331500768661 -0.05254342406988144 -0.48321521282196045 0 0 0 0
1627124172 -0.4959202706813812 0.1272336095571518 -0.05465376004576683 -0.4834759831428528 0 0 0 0
1627340056 -0.4956062436103821 0.13082166016101837 -0.055877141654491425 -0.4839748442173004 0 0 0 0
1627555940 -0.4935131072998047 0.13230526447296143 -0.05880241096019745 -0.48355382680892944 0 0 0 0
1627771824 -0.49276378750801086 0.1363675743341446 -0.06149755045771599 -0.48358801007270813 0 0 0 0
1627987708 -0.4929492175579071 0.13848400115966797 -0.061913684010505676 -0.4838576316833496 0 0 0 0
1628203592 -0.49118801951408386 0.13989607989788055 -0.06403865665197372 -0.4827688932418823 0 0 0 0
1628419476 -0.4897606372833252 0.1433086395263672 -0.06693123281002045 -0.48202553391456604 0 0 0 0
1628635360 -0.48887693881988525 0.14742501080036163 -0.06901129335165024 -0.48338401317596436 0 0 0 0
1628851244 -0.48826533555984497 0.14818806946277618 -0.07090591639280319 -0.4826148450374603 0 0 0 0
1629067128 -0.4863169491291046 0.15303805470466614 -0.0741434395313263 -0.4828958511352539 0 0 0 0
1629283012 -0.4858878254890442 0.15448446571826935 -0.07522828876972198 -0.4820759892463684 0 0 0 0
1629498896 -0.4845864474773407 0.15738055109977722 -0.07779762148857117 -0.48220762610435486 0 0 0 0
1629714780 -0.482866495847702 0.16015887260437012 -0.0793503001332283 -0.48149046301841736 0 0 0 0
1629930664 -0.4830853343009949 0.16208694875240326 -0.08034210652112961 -0.4819432497024536 0 0 0 0
1630146548 -0.48042649030685425 0.16594670712947845 -0.08456418663263321 -0.48133647441864014 0 0 0 0
1630362432 -0.479534387588501 0.16999448835849762 -0.08640671521425247 -0.48199087381362915 0 0 0 0
1630578316 -0.4789237678050995 0.17051975429058075 -0.08711058646440506 -0.48138704895973206 0 0 0 0
1630794200 -0.47702476382255554 0.17344120144844055 -0.09007462859153748 -0.4807145595550537 0 0 0 0
1631010084 -0.4758721590042114 0.17770729959011078 -0.09179016947746277 -0.48051193356513977 0 0 0 0
1631225968 -0.47499555349349976 0.17903080582618713 -0.09405697137117386 -0.4808824062347412 0 0 0 0
1631441852 -0.47350797057151794 0.18229204416275024 -0.0960431769490242 -0.48006460070610046 0 0 0 0
1631657736 -0.4726684093475342 0.18384233117103577 -0.09712495654821396 -0.48013272881507874 0 0 0 0
1631873620 -0.47022584080696106 0.18718919157981873 -0.10259447246789932 -0.48013925552368164 0 0 0 0
1632089504 -0.4686165452003479 0.19106616079807281 -0.1044389083981514 -0.4782935082912445 0 0 0 0
1632305388 -0.46840107440948486 0.19232775270938873 -0.10521034896373749 -0.4786996841430664 0 0 0 0
1632521272 -0.4667169451713562 0.19478832185268402 -0.1065497174859047 -0.4791751503944397 0 0 0 0
1632737156 -0.4650600254535675 0.1984090507030487 -0.11053518205881119 -0.4763583540916443 0 0 0 0
1632953040 -0.46509885787963867 0.19951066374778748 -0.11009577661752701 -0.4783776104450226 0 0 0 0
1633168924 -0.46298471093177795 0.20278075337409973 -0.11344295740127563 -0.477897971868515 0 0 0 0
1633384808 -0.4617091715335846 0.20493891835212708 -0.11503041535615921 -0.4778252840042114 0 0 0 0
1633600692 -0.4600835144519806 0.20828014612197876 -0.11799208074808121 -0.4772575795650482 0 0 0 0
1633816576 -0.45932134985923767 0.21151717007160187 -0.1178358644247055 -0.47803357243537903 0 0 0 0
1634032460 -0.4571770131587982 0.21381446719169617 -0.1225660890340805 -0.47638222575187683 0 0 0 0
1634248344 -0.45493486523628235 0.21637621521949768 -0.12526890635490417 -0.475087970495224 0 0 0 0
1634464228 -0.454603374004364 0.21943184733390808 -0.12535561621189117 -0.4770428538322449 0 0 0 0
1634680112 -0.45313170552253723 0.2205156534910202 -0.12812773883342743 -0.47493383288383484 0 0 0 0
1634895996 -0.4518948495388031 0.22400541603565216 -0.1288030594587326 -0.473781555891037 0 0 0 0
1635111880 -0.45006394386291504 0.22589851915836334 -0.13237495720386505 -0.47469374537467957 0 0 0 0
1635327764 -0.44828319549560547 0.2296370565891266 -0.1338484287261963 -0.47528499364852905 0 0 0 0
1635543648 -0.44655540585517883 0.2322472631931305 -0.13755939900875092 -0.47349464893341064 0 0 0 0
1635759532 -0.44491440057754517 0.23416638374328613 -0.14013703167438507 -0.4733150899410248 0 0 0 0
1635975416 -0.4439370930194855 0.23747466504573822 -0.14029642939567566 -0.4730682671070099 0 0 0 0
1636191300 -0.4424949884414673 0.23931890726089478 -0.1425962746143341 -0.4721345007419586 0 0 0 0
1636407184 -0.44018784165382385 0.24137820303440094 -0.146325021982193 -0.4716024696826935 0 0 0 0
1636623068 -0.43884119391441345 0.24566616117954254 -0.14719241857528687 -0.4723345637321472 0 0 0 0
1636838952 -0.43826666474342346 0.24540449678897858 -0.14806054532527924 -0.470991313457489 0 0 0 0
1637054836 -0.43497005105018616 0.2501983940601349 -0.15223035216331482 -0.4694485366344452 0 0 0 0
1637270720 -0.4341541528701782 0.25243210792541504 -0.15362587571144104 -0.47098276019096375 0 0 0 0
1637486604 -0.43223443627357483 0.2548592984676361 -0.15718671679496765 -0.4692470133304596 0 0 0 0
1637702488 -0.430162638425827 0.25743451714515686 -0.15827976167201996 -0.4695064425468445 0 0 0 0
1637918372 -0.42809998989105225 0.26063111424446106 -0.16175544261932373 -0.467677503824234 0 0 0 0
1638134256 -0.426702618598938 0.2620657980442047 -0.16272379457950592 -0.4682728350162506 0 0 0 0
1638350140 -0.42581185698509216 0.2647705376148224 -0.1650698333978653 -0.4684486389160156 0 0 0 0
1638566024 -0.42490124702453613 0.26615607738494873 -0.1651606559753418 -0.46740663051605225 0 0 0 0
1638781908 -0.4226904511451721 0.26924794912338257 -0.16741977632045746 -0.46690595149993896 0 0 0 0
1638997792 -0.4207531809806824 0.27311408519744873 -0.17101448774337769 -0.4668084979057312 0 0 0 0
1639213676 -0.4186442494392395 0.2752450108528137 -0.17389695346355438 -0.4662645757198334 0 0 0 0
1639429560 -0.4168127477169037 0.27742308378219604 -0.17483863234519958 -0.4656195044517517 0 0 0 0
1639645444 -0.41605454683303833 0.2776958644390106 -0.17632347345352173 -0.4635634422302246 0 0 0 0
1639861328 -0.4132905900478363 0.2813716530799866 -0.18020713329315186 -0.4627228379249573 0 0 0 0
1640077212 -0.4118969440460205 0.2846927344799042 -0.18065057694911957 -0.46317750215530396 0 0 0 0
1640293096 -0.4112030565738678 0.28442296385765076 -0.18351468443870544 -0.46199724078178406 0 0 0 0
1640508980 -0.4085296094417572 0.2889198958873749 -0.18530580401420593 -0.4618597626686096 0 0 0 0
1640724864 -0.40736570954322815 0.291005939245224 -0.18752656877040863 -0.46132180094718933 0 0 0 0
1640940748 -0.4039686322212219 0.2930392324924469 -0.1906486302614212 -0.4591462314128876 0 0 0 0
1641156632 -0.4031915068626404 0.29600790143013 -0.1905992329120636 -0.4606441855430603 0 0 0 0
1641372516 -0.4006293714046478 0.2977137267589569 -0.19467592239379883 -0.4582446217536926 0 0 0 0
1641588400 -0.39779382944107056 0.30210620164871216 -0.19741228222846985 -0.45810237526893616 0 0 0 0
1641804284 -0.39705419540405273 0.3023889362812042 -0.19867201149463654 -0.4565921127796173 0 0 0 0
1642020168 -0.3950166702270508 0.3057746887207031 -0.199578195810318 -0.45735248923301697 0 0 0 0
1642236052 -0.39273035526275635 0.3069518506526947 -0.20301157236099243 -0.456118106842041 0 0 0 0
1642451936 -0.3907467722892761 0.30934271216392517 -0.20509250462055206 -0.454842746257782 0 0 0 0
1642667820 -0.38993197679519653 0.311601847410202 -0.20558105409145355 -0.4538808763027191 0 0 0 0
1642883704 -0.3871334493160248 0.31389710307121277 -0.20940962433815002 -0.45377975702285767 0 0 0 0
1643099588 -0.3848646581172943 0.316744327545166 -0.21052993834018707 -0.45288828015327454 0 0 0 0
1643315472 -0.38379186391830444 0.31811341643333435 -0.21202832460403442 -0.45173218846321106 0 0 0 0
1643531356 -0.3816443979740143 0.32050466537475586 -0.21498972177505493 -0.45164138078689575 0 0 0 0
1643747240 -0.3788357377052307 0.32333019375801086 -0.2179720252752304 -0.44972851872444153 0 0 0 0
1643963124 -0.37862780690193176 0.32356521487236023 -0.2183411419391632 -0.4496273398399353 0 0 0 0
1644179008 -0.3760879933834076 0.32725989818573 -0.22095803916454315 -0.44906821846961975 0 0 0 0
1644394892 -0.3770943880081177 0.3242240846157074 -0.22324474155902863 -0.4477646052837372 0 0 0 0
1644610776 -0.3737548291683197 0.32774412631988525 -0.22624365985393524 -0.4470125138759613 0 0 0 0
1644826660 -0.37282177805900574 0.32856783270835876 -0.2269630879163742 -0.44599592685699463 0 0 0 0
1645042544 -0.3707186281681061 0.3314611613750458 -0.22834521532058716 -0.4459350109100342 0 0 0 0
1645258428 -0.3690987527370453 0.33296340703964233 -0.23138171434402466 -0.4453243613243103 0 0 0 0
1645474312 -0.3667190372943878 0.33516237139701843 -0.23370034992694855 -0.443584144115448 0 0 0 0
1645690196 -0.36394432187080383 0.33876660466194153 -0.23584656417369843 -0.4433472156524658 0 0 0 0
1645906080 -0.3618055582046509 0.3395600914955139 -0.23841506242752075 -0.4416632652282715 0 0 0 0
1646121964 -0.3595251739025116 0.34295180439949036 -0.24055230617523193 -0.44068071246147156 0 0 0 0
1646337848 -0.35893529653549194 0.3434831500053406 -0.24132885038852692 -0.4404202699661255 0 0 0 0
1646553732 -0.3559359312057495 0.3458782434463501 -0.24465949833393097 -0.4386959969997406 0 0 0 0
1646769616 -0.35411614179611206 0.34865498542785645 -0.24567729234695435 -0.437985897064209 0 0 0 0
1646985500 -0.35219448804855347 0.35015779733657837 -0.24770638346672058 -0.43790867924690247 0 0 0 0
1647201384 -0.3489234745502472 0.3524989187717438 -0.25053277611732483 -0.4356198310852051 0 0 0 0
1647417268 -0.3487952649593353 0.35446634888648987 -0.250903844833374 -0.43603652715682983 0 0 0 0
1647633152 -0.3461485505104065 0.3559124171733856 -0.2543032765388489 -0.4345886707305908 0 0 0 0
1647849036 -0.3438553512096405 0.3588962256908417 -0.2555809020996094 -0.4346048831939697 0 0 0 0
1648064920 -0.3426956534385681 0.35966184735298157 -0.25781601667404175 -0.43256357312202454 0 0 0 0
1648280804 -0.3384699821472168 0.36300918459892273 -0.25945529341697693 -0.4317863881587982 0 0 0 0
1648496688 -0.33763155341148376 0.36345961689949036 -0.26162487268447876 -0.4306573271751404 0 0 0 0
1648712572 -0.3350040018558502 0.3657989203929901 -0.2637835741043091 -0.42930570244789124 0 0 0 0
1648928456 -0.33191028237342834 0.36923596262931824 -0.26602306962013245 -0.4291217029094696 0 0 0 0
1649144340 -0.33086419105529785 0.37025487422943115 -0.2681159973144531 -0.4278126358985901 0 0 0 0
1649360224 -0.3287334144115448 0.3713687062263489 -0.26904118061065674 -0.42632076144218445 0 0 0 0
1649576108 -0.3264249563217163 0.373715877532959 -0.2716783881187439 -0.42581260204315186 0 0 0 0
1649791992 -0.3240101933479309 0.3754872679710388 -0.27427077293395996 -0.42405611276626587 0 0 0 0
1650007876 -0.3212278485298157 0.37816718220710754 -0.27609390020370483 -0.4229252338409424 0 0 0 0
1650223760 -0.3205817937850952 0.3799065351486206 -0.27712222933769226 -0.4228929281234741 0 0 0 0
1650439644 -0.3159869313240051 0.381752610206604 -0.280609130859375 -0.4203851521015167 0 0 0 0
1650655528 -0.31522321701049805 0.3830146789550781 -0.2816266119480133 -0.42006221413612366 0 0 0 0
1650871412 -0.31315284967422485 0.38460084795951843 -0.28388816118240356 -0.41893261671066284 0 0 0 0
1651087296 -0.30991366505622864 0.3883364796638489 -0.2863054573535919 -0.4186256229877472 0 0 0 0
1651303180 -0.3084091246128082 0.3889386057853699 -0.2875732481479645 -0.4171786904335022 0 0 0 0
1651519064 -0.30575618147850037 0.3905598521232605 -0.2897534668445587 -0.4148436486721039 0 0 0 0
1651734948 -0.30400189757347107 0.39210245013237 -0.2912285625934601 -0.4143489599227905 0 0 0 0
1651950832 -0.3007647395133972 0.39419326186180115 -0.2934633493423462 -0.41331204771995544 0 0 0 0
1652166716 -0.2983873188495636 0.39675259590148926 -0.29607105255126953 -0.41235536336898804 0 0 0 0
1652382600 -0.296782523393631 0.39788103103637695 -0.29816514253616333 -0.4112216532230377 0 0 0 0
1652598484 -0.29433196783065796 0.4001154601573944 -0.2993604242801666 -0.40999287366867065 0 0 0 0
1652814368 -0.29234278202056885 0.40127697587013245 -0.3009391725063324 -0.40907180309295654 0 0 0 0
1653030252 -0.28913822770118713 0.4032224416732788 -0.30352652072906494 -0.4068334698677063 0 0 0 0
1653246136 -0.28663134574890137 0.4047262966632843 -0.3051968812942505 -0.40604421496391296 0 0 0 0
1653462020 -0.2854158878326416 0.40569138526916504 -0.30665430426597595 -0.4048128128051758 0 0 0 0
1653677904 -0.2819516062736511 0.4090847671031952 -0.3086775839328766 -0.4036516845226288 0 0 0 0
1653893788 -0.2797625958919525 0.4108720123767853 -0.31176701188087463 -0.40302735567092896 0 0 0 0
1654109672 -0.2771393954753876 0.4117632210254669 -0.3133646845817566 -0.4005809426307678 0 0 0 0
1654325556 -0.27662956714630127 0.4133114218711853 -0.3133533298969269 -0.40011870861053467 0 0 0 0
1654541440 -0.27216804027557373 0.41391119360923767 -0.3176942765712738 -0.39767757058143616 0 0 0 0
1654757324 -0.2689007818698883 0.41622263193130493 -0.31961631774902344 -0.3957519233226776 0 0 0 0
1654973208 -0.2688441574573517 0.4182845652103424 -0.3208582103252411 -0.3959118723869324 0 0 0 0
1655189092 -0.2649107873439789 0.41930657625198364 -0.32339558005332947 -0.3945551812648773 0 0 0 0
1655404976 -0.26343420147895813 0.42167699337005615 -0.32337284088134766 -0.3930788040161133 0 0 0 0
1655620860 -0.26169562339782715 0.4228394031524658 -0.32585543394088745 -0.39205673336982727 0 0 0 0
1655836744 -0.2580556571483612 0.42356041073799133 -0.32840484380722046 -0.38926056027412415 0 0 0 0
1656052628 -0.25496459007263184 0.42754796147346497 -0.3306472897529602 -0.3900127410888672 0 0 0 0
1656268512 -0.2539069652557373 0.4271264374256134 -0.3315851092338562 -0.38870662450790405 0 0 0 0
1656484396 -0.2503822445869446 0.42949753999710083 -0.3337918519973755 -0.386535108089447 0 0 0 0
1656700280 -0.2497197985649109 0.4306855797767639 -0.33497390151023865 -0.3854283392429352 0 0 0 0
1656916164 -0.24590368568897247 0.4318549633026123 -0.33791443705558777 -0.3834552764892578 0 0 0 0
1657132048 -0.24296197295188904 0.43467751145362854 -0.3393554389476776 -0.38367578387260437 0 0 0 0
1657347932 -0.24058768153190613 0.4349372088909149 -0.34172162413597107 -0.38094061613082886 0 0 0 0
1657563816 -0.23701918125152588 0.4367471933364868 -0.34344789385795593 -0.37961483001708984 0 0 0 0
1657779700 -0.2360525280237198 0.4374077618122101 -0.345215380191803 -0.37812870740890503 0 0 0 0
1657995584 -0.23249682784080505 0.439751535654068 -0.34764280915260315 -0.37665459513664246 0 0 0 0
1658211468 -0.22998353838920593 0.44115522503852844 -0.34807488322257996 -0.37498536705970764 0 0 0 0
1658427352 -0.22977215051651 0.44194352626800537 -0.34922274947166443 -0.37347230315208435 0 0 0 0
1658643236 -0.2254670113325119 0.4440726041793823 -0.3520240783691406 -0.372472882270813 0 0 0 0
1658859120 -0.22374379634857178 0.4436054527759552 -0.3530113995075226 -0.3705761432647705 0 0 0 0
1659075004 -0.2215208113193512 0.44565412402153015 -0.3550718426704407 -0.3693702220916748 0 0 0 0
1659290888 -0.21811266243457794 0.4482211470603943 -0.35746994614601135 -0.3680460453033447 0 0 0 0
1659506772 -0.2171117514371872 0.44933128356933594 -0.35825636982917786 -0.36632731556892395 0 0 0 0
1659722656 -0.21354025602340698 0.4484214782714844 -0.3599126935005188 -0.36423251032829285 0 0 0 0
1659938540 -0.21203932166099548 0.45153936743736267 -0.3616560995578766 -0.36456215381622314 0 0 0 0
1660154424 -0.20668400824069977 0.45347845554351807 -0.36564213037490845 -0.3611641824245453 0 0 0 0
1660370308 -0.20443639159202576 0.45427635312080383 -0.36655864119529724 -0.36043673753738403 0 0 0 0
1660586192 -0.2031792551279068 0.45526179671287537 -0.36827585101127625 -0.35848742723464966 0 0 0 0
1660802076 -0.19885532557964325 0.45792528986930847 -0.3703373372554779 -0.3585207760334015 0 0 0 0
1661017960 -0.19751374423503876 0.4581138491630554 -0.3717515468597412 -0.35574430227279663 0 0 0 0
1661233844 -0.19596603512763977 0.45930856466293335 -0.3732816278934479 -0.35492411255836487 0 0 0 0
1661449728 -0.19059309363365173 0.4615699052810669 -0.3761523365974426 -0.35166871547698975 0 0 0 0
1661665612 -0.18979091942310333 0.46223005652427673 -0.37745487689971924 -0.3518024981021881 0 0 0 0
1661881496 -0.18720299005508423 0.46240031719207764 -0.3786032199859619 -0.34935447573661804 0 0 0 0
1662097380 -0.18476109206676483 0.46472543478012085 -0.3799189627170563 -0.34821513295173645 0 0 0 0
1662313264 -0.18268533051013947 0.4641490876674652 -0.3823462724685669 -0.3460080623626709 0 0 0 0
