# HZ S RI R 50
1720000000 0.520056962966919 -0.31170937418937683 0.3483809530735016 0.10935471206903458 0 0 0 0
1720293826 0.5156568288803101 -0.3204002380371094 0.35027188062667847 0.10375332087278366 0 0 0 0
1720587652 0.5098392367362976 -0.32748374342918396 0.35234853625297546 0.09679911285638809 0 0 0 0
1720881478 0.5046716332435608 -0.33618178963661194 0.3541259169578552 0.0902596265077591 0 0 0 0
1721175304 0.5003519058227539 -0.3409693241119385 0.3560910224914551 0.08346907049417496 0 0 0 0
1721469130 0.49245303869247437 -0.3512488603591919 0.3578493893146515 0.07680441439151764 0 0 0 0
1721762956 0.4893333613872528 -0.35593247413635254 0.358851820230484 0.07214395701885223 0 0 0 0
1722056782 0.483163982629776 -0.36400964856147766 0.3604520261287689 0.06490639597177505 0 0 0 0
1722350608 0.47618964314460754 -0.3698200285434723 0.36189785599708557 0.05888410285115242 0 0 0 0
1722644434 0.46963849663734436 -0.3785003125667572 0.36330196261405945 0.052007172256708145 0 0 0 0
1722938260 0.46226343512535095 -0.3852395713329315 0.364488422870636 0.04485118016600609 0 0 0 0
1723232086 0.45913833379745483 -0.38959914445877075 0.3655117452144623 0.03943616896867752 0 0 0 0
1723525912 0.4497031271457672 -0.4001227915287018 0.3666330873966217 0.030743684619665146 0 0 0 0
1723819738 0.44603556394577026 -0.40269067883491516 0.36739087104797363 0.02592703327536583 0 0 0 0
1724113564 0.4381420314311981 -0.41151782870292664 0.36799150705337524 0.01899571344256401 0 0 0 0
1724407390 0.42929190397262573 -0.4178623855113983 0.368833988904953 0.011409144848585129 0 0 0 0
1724701216 0.42528289556503296 -0.4208931624889374 0.36925873160362244 0.004709955304861069 0 0 0 0
1724995042 0.4167935252189636 -0.42826831340789795 0.3698725402355194 -0.0012956345453858376 0 0 0 0
1725288868 0.40981408953666687 -0.43274232745170593 0.370164155960083 -0.007948706857860088 0 0 0 0
1725582694 0.40155139565467834 -0.43842679262161255 0.370491087436676 -0.014359056949615479 0 0 0 0
1725876520 0.3959483802318573 -0.44337722659111023 0.37042000889778137 -0.022635098546743393 0 0 0 0
1726170346 0.38820531964302063 -0.4493202567100525 0.37071189284324646 -0.02867760695517063 0 0 0 0
1726464172 0.37947413325309753 -0.453782856464386 0.370375394821167 -0.03559895232319832 0 0 0 0
1726757998 0.37260377407073975 -0.45872336626052856 0.3703180253505707 -0.042653921991586685 0 0 0 0
1727051824 0.36545228958129883 -0.46240290999412537 0.37004855275154114 -0.04916144907474518 0 0 0 0
1727345650 0.35733792185783386 -0.4670630097389221 0.3697259724140167 -0.05583864450454712 0 0 0 0
1727639476 0.3500432074069977 -0.47004374861717224 0.36930063366889954 -0.061920735985040665 0 0 0 0
1727933302 0.3419214189052582 -0.4763571619987488 0.3685685396194458 -0.07047608494758606 0 0 0 0
1728227128 0.3326333165168762 -0.4792073965072632 0.3676465153694153 -0.07692330330610275 0 0 0 0
1728520954 0.3263491690158844 -0.4818513095378876 0.36670902371406555 -0.08394776284694672 0 0 0 0
1728814780 0.3162539303302765 -0.4864286184310913 0.3656887114048004 -0.0906883031129837 0 0 0 0
1729108606 0.30993449687957764 -0.48864585161209106 0.36489617824554443 -0.09757377952337265 0 0 0 0
1729402432 0.3005310893058777 -0.49318087100982666 0.3635005056858063 -0.10521876066923141 0 0 0 0
1729696258 0.2924348711967468 -0.4961587190628052 0.3620228171348572 -0.11166060715913773 0 0 0 0
1729990084 0.28473082184791565 -0.49820607900619507 0.360522985458374 -0.11851039528846741 0 0 0 0
1730283910 0.27587321400642395 -0.49914252758026123 0.3591855764389038 -0.12495304644107819 0 0 0 0
1730577736 0.2659469544887543 -0.5031953454017639 0.35721108317375183 -0.1321466863155365 0 0 0 0
1730871562 0.2584981620311737 -0.5053410530090332 0.3552762567996979 -0.13949035108089447 0 0 0 0
1731165388 0.25130677223205566 -0.5077014565467834 0.35343387722969055 -0.1466313749551773 0 0 0 0
1731459214 0.2409435212612152 -0.5089929699897766 0.3513318598270416 -0.15347923338413239 0 0 0 0
1731753040 0.23411257565021515 -0.5100608468055725 0.34911829233169556 -0.16018371284008026 0 0 0 0
1732046866 0.22440336644649506 -0.511812686920166 0.3468015491962433 -0.16667330265045166 0 0 0 0
1732340692 0.21660301089286804 -0.5126676559448242 0.3442046642303467 -0.17396363615989685 0 0 0 0
1732634518 0.20530018210411072 -0.5138863325119019 0.34117069840431213 -0.18025575578212738 0 0 0 0
1732928344 0.19920815527439117 -0.5159910917282104 0.338631272315979 -0.18825292587280273 0 0 0 0
1733222170 0.1884506791830063 -0.5166634321212769 0.33585235476493835 -0.19444938004016876 0 0 0 0
1733515996 0.18290160596370697 -0.5160623788833618 0.3329258859157562 -0.20199233293533325 0 0 0 0
1733809822 0.17255572974681854 -0.5170537829399109 0.32906803488731384 -0.2087501436471939 0 0 0 0
1734103648 0.16295404732227325 -0.5173710584640503 0.3260345458984375 -0.21532538533210754 0 0 0 0
1734397474 0.1545778214931488 -0.5171002149581909 0.3226395845413208 -0.2211725264787674 0 0 0 0
1734691300 0.14625795185565948 -0.5171322226524353 0.31918156147003174 -0.22846917808055878 0 0 0 0
1734985126 0.1397830843925476 -0.5163204073905945 0.316100537776947 -0.234556645154953 0 0 0 0
1735278952 0.12855584919452667 -0.5158822536468506 0.3115001916885376 -0.24179604649543762 0 0 0 0
1735572778 0.1226842924952507 -0.5157407522201538 0.3077605962753296 -0.2485828846693039 0 0 0 0
1735866604 0.11183424293994904 -0.5153647661209106 0.303240567445755 -0.2544190287590027 0 0 0 0
1736160430 0.1043827161192894 -0.5134574174880981 0.29829898476600647 -0.26169878244400024 0 0 0 0
1736454256 0.09635554999113083 -0.512897789478302 0.2947733998298645 -0.2678009569644928 0 0 0 0
1736748082 0.08714322000741959 -0.5107893943786621 0.28982728719711304 -0.27416014671325684 0 0 0 0
1737041908 0.07785695791244507 -0.5101912617683411 0.2851574718952179 -0.28062885999679565 0 0 0 0
1737335734 0.07002551108598709 -0.507981538772583 0.2803884446620941 -0.2867230772972107 0 0 0 0
1737629560 0.06377023458480835 -0.5057451128959656 0.2757664918899536 -0.2924575209617615 0 0 0 0
1737923386 0.05361936241388321 -0.5035568475723267 0.2702333927154541 -0.2988305985927582 0 0 0 0
1738217212 0.047142889350652695 -0.501672625541687 0.26442304253578186 -0.3047706186771393 0 0 0 0
1738511038 0.03771790489554405 -0.49979549646377563 0.25880488753318787 -0.31149718165397644 0 0 0 0
1738804864 0.032093845307826996 -0.49579235911369324 0.2542869746685028 -0.3164716958999634 0 0 0 0
1739098690 0.02315969206392765 -0.49476560950279236 0.2483518123626709 -0.3226546347141266 0 0 0 0
1739392516 0.0154337827116251 -0.4908067584037781 0.24278485774993896 -0.3281473219394684 0 0 0 0
1739686342 0.012587660923600197 -0.48668724298477173 0.23676928877830505 -0.33401286602020264 0 0 0 0
1739980168 0.006940252147614956 -0.4849284291267395 0.23039555549621582 -0.3401564955711365 0 0 0 0
1740273994 -0.004136827774345875 -0.48161762952804565 0.22309395670890808 -0.3451769948005676 0 0 0 0
1740567820 -0.01093217357993126 -0.4767787754535675 0.21672922372817993 -0.35031813383102417 0 0 0 0
1740861646 -0.01747661828994751 -0.47376546263694763 0.21089060604572296 -0.35552293062210083 0 0 0 0
1741155472 -0.024694880470633507 -0.4700969457626343 0.20299191772937775 -0.3606444001197815 0 0 0 0
1741449298 -0.03306836262345314 -0.46574485301971436 0.1967112272977829 -0.36514291167259216 0 0 0 0
1741743124 -0.039832767099142075 -0.4624895751476288 0.18990805745124817 -0.37053632736206055 0 0 0 0
1742036950 -0.04602088779211044 -0.45816516876220703 0.1827375441789627 -0.3747847080230713 0 0 0 0
1742330776 -0.0535070076584816 -0.4539688229560852 0.17601394653320312 -0.3798256814479828 0 0 0 0
1742624602 -0.060311805456876755 -0.44981351494789124 0.16801372170448303 -0.3839644193649292 0 0 0 0
1742918428 -0.0673414021730423 -0.4444426894187927 0.16091258823871613 -0.3884720504283905 0 0 0 0
1743212254 -0.07281763851642609 -0.44035741686820984 0.1526339054107666 -0.39295434951782227 0 0 0 0
1743506080 -0.0814400166273117 -0.43525364995002747 0.14479589462280273 -0.3958193063735962 0 0 0 0
1743799906 -0.08531203120946884 -0.4303383231163025 0.13751834630966187 -0.4007287919521332 0 0 0 0
1744093732 -0.09436199814081192 -0.42567968368530273 0.12841269373893738 -0.40466487407684326 0 0 0 0
1744387558 -0.09831605106592178 -0.4204553961753845 0.12107351422309875 -0.4074501097202301 0 0 0 0
1744681384 -0.10651125013828278 -0.4156222343444824 0.11234015971422195 -0.4117674231529236 0 0 0 0
1744975210 -0.11086972802877426 -0.4101470708847046 0.10499107837677002 -0.41467759013175964 0 0 0 0
1745269036 -0.11761032044887543 -0.40511414408683777 0.09517774730920792 -0.4179460108280182 0 0 0 0
1745562862 -0.12326879054307938 -0.39906370639801025 0.08677345514297485 -0.4205865263938904 0 0 0 0
1745856688 -0.12936943769454956 -0.3939134478569031 0.07713287323713303 -0.42327162623405457 0 0 0 0
1746150514 -0.13313040137290955 -0.38759535551071167 0.06967626512050629 -0.4256657361984253 0 0 0 0
1746444340 -0.13823361694812775 -0.3820614516735077 0.06172851473093033 -0.4281903803348541 0 0 0 0
1746738166 -0.14585384726524353 -0.3753291964530945 0.05038048326969147 -0.4302077889442444 0 0 0 0
1747031992 -0.14904175698757172 -0.37025803327560425 0.04297751560807228 -0.43199098110198975 0 0 0 0
1747325818 -0.15457741916179657 -0.3638641834259033 0.034085433930158615 -0.4344628155231476 0 0 0 0
1747619644 -0.15801754593849182 -0.3583148419857025 0.02520591765642166 -0.4362316131591797 0 0 0 0
1747913470 -0.16267460584640503 -0.35210901498794556 0.01616794243454933 -0.437531977891922 0 0 0 0
1748207296 -0.16722610592842102 -0.34569263458251953 0.0064386604353785515 -0.43824005126953125 0 0 0 0
1748501122 -0.17206890881061554 -0.33894285559654236 -0.003490426577627659 -0.43966466188430786 0 0 0 0
1748794948 -0.17582188546657562 -0.3325153589248657 -0.011724603362381458 -0.43961429595947266 0 0 0 0
1749088774 -0.18033379316329956 -0.3267673850059509 -0.021451827138662338 -0.440756231546402 0 0 0 0
1749382600 -0.1842094510793686 -0.31940481066703796 -0.03152681887149811 -0.4411897659301758 0 0 0 0
1749676426 -0.18879306316375732 -0.31383058428764343 -0.041054949164390564 -0.44196876883506775 0 0 0 0
1749970252 -0.19115875661373138 -0.30690833926200867 -0.04925907775759697 -0.44120150804519653 0 0 0 0
1750264078 -0.1950678676366806 -0.30022722482681274 -0.05982957407832146 -0.44089388847351074 0 0 0 0
1750557904 -0.1984415352344513 -0.29364320635795593 -0.06934824585914612 -0.44031694531440735 0 0 0 0
1750851730 -0.20281529426574707 -0.2864604592323303 -0.07983127236366272 -0.43976232409477234 0 0 0 0
1751145556 -0.20488522946834564 -0.2799079120159149 -0.08863000571727753 -0.43927112221717834 0 0 0 0
1751439382 -0.20931509137153625 -0.27192726731300354 -0.09901729971170425 -0.43645408749580383 0 0 0 0
1751733208 -0.21120242774486542 -0.2659384310245514 -0.108548104763031 -0.4361339807510376 0 0 0 0
1752027034 -0.2146526575088501 -0.2583927512168884 -0.11903521418571472 -0.4340476989746094 0 0 0 0
1752320860 -0.21588686108589172 -0.2522434890270233 -0.1270315796136856 -0.43241560459136963 0 0 0 0
1752614686 -0.218810573220253 -0.24529823660850525 -0.13646793365478516 -0.43048325181007385 0 0 0 0
1752908512 -0.22214722633361816 -0.2372177541255951 -0.14789500832557678 -0.42764028906822205 0 0 0 0
1753202338 -0.22349171340465546 -0.23175157606601715 -0.15559649467468262 -0.42613011598587036 0 0 0 0
1753496164 -0.2272620052099228 -0.22287613153457642 -0.16691476106643677 -0.42179107666015625 0 0 0 0
1753789990 -0.22714050114154816 -0.21700119972229004 -0.17463767528533936 -0.41916483640670776 0 0 0 0
1754083816 -0.23009319603443146 -0.2088344842195511 -0.18554790318012238 -0.41568076610565186 0 0 0 0
1754377642 -0.23203708231449127 -0.20177485048770905 -0.19474150240421295 -0.4122518301010132 0 0 0 0
1754671468 -0.23288214206695557 -0.19566316902637482 -0.20234732329845428 -0.4089130461215973 0 0 0 0
1754965294 -0.23520971834659576 -0.1870165914297104 -0.2132849097251892 -0.40456074476242065 0 0 0 0
1755259120 -0.23546485602855682 -0.1815938502550125 -0.22109602391719818 -0.4009094536304474 0 0 0 0
1755552946 -0.2382366955280304 -0.17267505824565887 -0.2320699691772461 -0.39508193731307983 0 0 0 0
1755846772 -0.2381809651851654 -0.1663065105676651 -0.23910313844680786 -0.3921886086463928 0 0 0 0
1756140598 -0.23907504975795746 -0.15916955471038818 -0.24879135191440582 -0.3863334357738495 0 0 0 0
1756434424 -0.2406577616930008 -0.1507578045129776 -0.2592249810695648 -0.38094592094421387 0 0 0 0
1756728250 -0.24045777320861816 -0.14529484510421753 -0.26530691981315613 -0.3774273991584778 0 0 0 0
1757022076 -0.24193783104419708 -0.13675451278686523 -0.275494784116745 -0.3703049123287201 0 0 0 0
1757315902 -0.24176236987113953 -0.12992556393146515 -0.2830980718135834 -0.36545222997665405 0 0 0 0
1757609728 -0.24191218614578247 -0.12381608039140701 -0.2905848026275635 -0.3601047694683075 0 0 0 0
1757903554 -0.2426397055387497 -0.11483519524335861 -0.3005608022212982 -0.35284075140953064 0 0 0 0
1758197380 -0.2423926144838333 -0.10857654362916946 -0.3078395128250122 -0.34692931175231934 0 0 0 0
1758491206 -0.24279595911502838 -0.10034683346748352 -0.3158333897590637 -0.33970174193382263 0 0 0 0
1758785032 -0.24237661063671112 -0.09406793117523193 -0.3229078948497772 -0.33400413393974304 0 0 0 0
1759078858 -0.24230161309242249 -0.08668560534715652 -0.3308904767036438 -0.32735157012939453 0 0 0 0
1759372684 -0.2416885644197464 -0.0792161226272583 -0.33725443482398987 -0.32048797607421875 0 0 0 0
1759666510 -0.2414121925830841 -0.0715712159872055 -0.34588974714279175 -0.31226253509521484 0 0 0 0
1759960336 -0.2407218962907791 -0.06426232308149338 -0.3524777889251709 -0.3052136301994324 0 0 0 0
1760254162 -0.23999159038066864 -0.057571638375520706 -0.3593794107437134 -0.2979954481124878 0 0 0 0
1760547988 -0.239259734749794 -0.04973599314689636 -0.36659178137779236 -0.28936076164245605 0 0 0 0
1760841814 -0.23811839520931244 -0.04219609498977661 -0.3732891082763672 -0.2813623249530792 0 0 0 0
1761135640 -0.23683899641036987 -0.035618748515844345 -0.38056856393814087 -0.2725369930267334 0 0 0 0
1761429466 -0.23591187596321106 -0.02817513421177864 -0.38666674494743347 -0.26535212993621826 0 0 0 0
1761723292 -0.23424497246742249 -0.020721590146422386 -0.3926171362400055 -0.25623342394828796 0 0 0 0
1762017118 -0.23307090997695923 -0.013983153738081455 -0.39795660972595215 -0.24811391532421112 0 0 0 0
1762310944 -0.23125332593917847 -0.0064198412001132965 -0.40278396010398865 -0.24039226770401 0 0 0 0
1762604770 -0.22913865745067596 -7.672235369682312e-06 -0.4089191257953644 -0.23131722211837769 0 0 0 0
1762898596 -0.22743035852909088 0.008268262259662151 -0.41479912400245667 -0.22145329415798187 0 0 0 0
1763192422 -0.22555217146873474 0.01426770817488432 -0.41841694712638855 -0.21329911053180695 0 0 0 0
1763486248 -0.22353480756282806 0.021904779598116875 -0.4243515431880951 -0.2024555802345276 0 0 0 0
1763780074 -0.22103500366210938 0.02996278740465641 -0.42893245816230774 -0.19374631345272064 0 0 0 0
1764073900 -0.21881088614463806 0.03587626665830612 -0.43273845314979553 -0.1859629899263382 0 0 0 0
1764367726 -0.21576793491840363 0.04379822313785553 -0.43766114115715027 -0.1736488789319992 0 0 0 0
1764661552 -0.2135818898677826 0.04985226318240166 -0.4406158924102783 -0.1653652787208557 0 0 0 0
1764955378 -0.2109857052564621 0.05709737911820412 -0.4446941316127777 -0.15557649731636047 0 0 0 0
1765249204 -0.20730407536029816 0.06444058567285538 -0.4486551284790039 -0.14586083590984344 0 0 0 0
1765543030 -0.2047964334487915 0.07109193503856659 -0.4516580104827881 -0.13603854179382324 0 0 0 0
1765836856 -0.20146074891090393 0.07881849259138107 -0.45420750975608826 -0.12605363130569458 0 0 0 0
1766130682 -0.1977025717496872 0.08475285023450851 -0.4573628902435303 -0.1160021498799324 0 0 0 0
1766424508 -0.1940147876739502 0.09263257682323456 -0.45984023809432983 -0.10562315583229065 0 0 0 0
1766718334 -0.19032955169677734 0.09873977303504944 -0.4625638723373413 -0.0951693132519722 0 0 0 0
1767012160 -0.18714448809623718 0.10536418110132217 -0.4636821448802948 -0.08548318594694138 0 0 0 0
1767305986 -0.18312576413154602 0.11187808960676193 -0.46572932600975037 -0.07582959532737732 0 0 0 0
1767599812 -0.1789301633834839 0.1185830682516098 -0.4677107632160187 -0.06488852202892303 0 0 0 0
1767893638 -0.17504775524139404 0.1254759281873703 -0.4682139754295349 -0.054170217365026474 0 0 0 0
1768187464 -0.17032907903194427 0.13180825114250183 -0.4703439772129059 -0.043127406388521194 0 0 0 0
1768481290 -0.16570675373077393 0.13837258517742157 -0.47078168392181396 -0.034065693616867065 0 0 0 0
1768775116 -0.1608700305223465 0.14432165026664734 -0.4716951251029968 -0.022611312568187714 0 0 0 0
1769068942 -0.15724658966064453 0.15039293467998505 -0.4716895818710327 -0.013783169910311699 0 0 0 0
1769362768 -0.15130549669265747 0.15730856359004974 -0.4715918004512787 -0.0012447237968444824 0 0 0 0
1769656594 -0.14715293049812317 0.16303570568561554 -0.4717848300933838 0.007426527328789234 0 0 0 0
1769950420 -0.14129483699798584 0.1699880212545395 -0.47131332755088806 0.016999460756778717 0 0 0 0
1770244246 -0.13608475029468536 0.17522607743740082 -0.4708399176597595 0.028402825817465782 0 0 0 0
1770538072 -0.13004173338413239 0.18153217434883118 -0.4700096845626831 0.040222954005002975 0 0 0 0
1770831898 -0.12500371038913727 0.18708811700344086 -0.4686066508293152 0.048891469836235046 0 0 0 0
1771125724 -0.11846376210451126 0.19272376596927643 -0.46727681159973145 0.0609026774764061 0 0 0 0
1771419550 -0.11334419250488281 0.19812341034412384 -0.46552571654319763 0.068650983273983 0 0 0 0
1771713376 -0.10626200586557388 0.20410862565040588 -0.4642888307571411 0.08103592693805695 0 0 0 0
1772007202 -0.10061148554086685 0.2099270522594452 -0.4622577130794525 0.08923427015542984 0 0 0 0
1772301028 -0.09420614689588547 0.2146330624818802 -0.4604339301586151 0.09927618503570557 0 0 0 0
1772594854 -0.0880989134311676 0.21896658837795258 -0.45707160234451294 0.11015226691961288 0 0 0 0
1772888680 -0.08111198991537094 0.22547730803489685 -0.4545079469680786 0.11982379853725433 0 0 0 0
1773182506 -0.07381699979305267 0.22978350520133972 -0.45189836621284485 0.12931613624095917 0 0 0 0
1773476332 -0.06774374842643738 0.23489029705524445 -0.4491432309150696 0.13889764249324799 0 0 0 0
1773770158 -0.06018315255641937 0.23918801546096802 -0.4450836777687073 0.14911234378814697 0 0 0 0
1774063984 -0.053733840584754944 0.24385705590248108 -0.4414062798023224 0.15842393040657043 0 0 0 0
1774357810 -0.04562441632151604 0.24792025983333588 -0.4376407563686371 0.1682741492986679 0 0 0 0
1774651636 -0.038796696811914444 0.2524554133415222 -0.434187650680542 0.17757365107536316 0 0 0 0
1774945462 -0.030329052358865738 0.25581666827201843 -0.4290180802345276 0.1865570992231369 0 0 0 0
1775239288 -0.023578578606247902 0.26049941778182983 -0.4252679944038391 0.19569410383701324 0 0 0 0
1775533114 -0.015061067417263985 0.264151930809021 -0.4195733666419983 0.20541739463806152 0 0 0 0
1775826940 -0.00791190192103386 0.2674162685871124 -0.4156334400177002 0.21311523020267487 0 0 0 0
1776120766 -0.0008857939392328262 0.2715968191623688 -0.41141968965530396 0.22264914214611053 0 0 0 0
1776414592 0.008299103006720543 0.274635910987854 -0.40522485971450806 0.23099175095558167 0 0 0 0
1776708418 0.01559474691748619 0.2773495316505432 -0.399960994720459 0.2408880889415741 0 0 0 0
1777002244 0.02464490570127964 0.2806210219860077 -0.39540067315101624 0.24799591302871704 0 0 0 0
1777296070 0.03293295577168465 0.28239649534225464 -0.3878736197948456 0.25693464279174805 0 0 0 0
1777589896 0.0410369448363781 0.285527765750885 -0.3827674388885498 0.2637481987476349 0 0 0 0
